<Qucs Dataset 0.0.24>
<indep time 497>
0.000000000000e+00
1.000000000000e-11
1.562841699972e-11
2.688525099917e-11
4.939891899805e-11
9.168375900799e-11
1.762534390279e-10
3.453927990676e-10
6.836715191471e-10
1.000000000000e-09
1.067655744016e-09
1.202967232048e-09
1.473590208111e-09
2.014836160239e-09
3.097328064493e-09
4.966802135016e-09
8.021790750329e-09
1.211000510745e-08
1.676600575151e-08
2.607800703965e-08
3.887838076575e-08
5.346722635615e-08
8.264491753695e-08
1.410002998985e-07
2.317872950639e-07
4.133612853947e-07
7.765092660563e-07
1.226509266056e-06
1.676509266056e-06
2.126509266056e-06
2.576509266056e-06
3.026509266056e-06
3.476509266056e-06
3.926509266056e-06
4.376509266056e-06
4.826509266056e-06
5.276509266056e-06
5.726509266056e-06
6.176509266056e-06
6.626509266056e-06
7.076509266056e-06
7.526509266056e-06
7.976509266056e-06
8.426509266056e-06
8.876509266056e-06
9.326509266056e-06
9.776509266056e-06
1.022650926606e-05
1.067650926606e-05
1.112650926606e-05
1.157650926606e-05
1.202650926606e-05
1.247650926606e-05
1.292650926606e-05
1.337650926606e-05
1.382650926606e-05
1.427650926606e-05
1.472650926606e-05
1.517650926606e-05
1.562650926606e-05
1.607650926606e-05
1.652650926606e-05
1.697650926606e-05
1.742650926606e-05
1.787650926606e-05
1.832650926606e-05
1.877650926606e-05
1.922650926606e-05
1.967650926606e-05
2.012650926606e-05
2.057650926606e-05
2.102650926606e-05
2.147650926606e-05
2.192650926606e-05
2.237650926606e-05
2.282650926606e-05
2.327650926606e-05
2.372650926606e-05
2.417650926606e-05
2.462650926606e-05
2.507650926606e-05
2.552650926606e-05
2.597650926606e-05
2.642650926606e-05
2.687650926606e-05
2.732650926606e-05
2.777650926606e-05
2.822650926606e-05
2.867650926606e-05
2.912650926606e-05
2.957650926606e-05
3.002650926606e-05
3.047650926606e-05
3.092650926606e-05
3.137650926606e-05
3.182650926606e-05
3.227650926606e-05
3.272650926606e-05
3.317650926606e-05
3.362650926606e-05
3.407650926606e-05
3.452650926606e-05
3.497650926606e-05
3.542650926606e-05
3.587650926606e-05
3.632650926606e-05
3.677650926606e-05
3.722650926606e-05
3.767650926606e-05
3.812650926606e-05
3.857650926606e-05
3.902650926606e-05
3.947650926606e-05
3.992650926606e-05
4.037650926606e-05
4.082650926606e-05
4.127650926606e-05
4.172650926606e-05
4.217650926606e-05
4.262650926606e-05
4.307650926606e-05
4.352650926606e-05
4.397650926606e-05
4.442650926606e-05
4.487650926606e-05
4.532650926606e-05
4.577650926606e-05
4.622650926606e-05
4.667650926606e-05
4.712650926606e-05
4.757650926606e-05
4.802650926606e-05
4.847650926606e-05
4.892650926606e-05
4.937650926606e-05
4.982650926606e-05
5.000000000000e-05
5.000010000000e-05
5.000030000000e-05
5.000070000000e-05
5.000100000000e-05
5.000108000000e-05
5.000124000000e-05
5.000156000000e-05
5.000200000000e-05
5.000206400000e-05
5.000219200000e-05
5.000244800000e-05
5.000296000000e-05
5.000398400000e-05
5.000603200000e-05
5.001012800000e-05
5.001323691355e-05
5.001706674622e-05
5.002071389374e-05
5.002800818878e-05
5.004259677886e-05
5.007177395903e-05
5.013012831936e-05
5.024683704003e-05
5.048025448137e-05
5.093025448137e-05
5.138025448137e-05
5.183025448137e-05
5.228025448137e-05
5.273025448137e-05
5.318025448137e-05
5.363025448137e-05
5.408025448137e-05
5.453025448137e-05
5.498025448137e-05
5.543025448137e-05
5.588025448137e-05
5.633025448137e-05
5.678025448137e-05
5.723025448137e-05
5.768025448137e-05
5.813025448137e-05
5.858025448137e-05
5.903025448137e-05
5.948025448137e-05
5.993025448137e-05
6.038025448137e-05
6.083025448137e-05
6.128025448137e-05
6.173025448137e-05
6.218025448137e-05
6.263025448137e-05
6.308025448137e-05
6.353025448137e-05
6.398025448137e-05
6.443025448137e-05
6.488025448137e-05
6.533025448137e-05
6.578025448137e-05
6.623025448137e-05
6.668025448137e-05
6.713025448137e-05
6.758025448137e-05
6.803025448137e-05
6.848025448137e-05
6.893025448137e-05
6.938025448137e-05
6.983025448137e-05
7.028025448137e-05
7.073025448137e-05
7.118025448137e-05
7.163025448137e-05
7.208025448137e-05
7.253025448137e-05
7.298025448137e-05
7.343025448137e-05
7.388025448137e-05
7.433025448137e-05
7.478025448137e-05
7.523025448137e-05
7.568025448137e-05
7.613025448137e-05
7.658025448137e-05
7.703025448137e-05
7.748025448137e-05
7.793025448137e-05
7.838025448137e-05
7.883025448137e-05
7.928025448137e-05
7.973025448137e-05
8.018025448137e-05
8.063025448137e-05
8.108025448137e-05
8.153025448137e-05
8.198025448137e-05
8.243025448137e-05
8.288025448137e-05
8.333025448137e-05
8.378025448137e-05
8.423025448137e-05
8.468025448137e-05
8.513025448137e-05
8.558025448137e-05
8.603025448137e-05
8.648025448137e-05
8.693025448137e-05
8.738025448137e-05
8.783025448137e-05
8.828025448137e-05
8.873025448137e-05
8.918025448137e-05
8.963025448137e-05
9.008025448137e-05
9.053025448137e-05
9.098025448137e-05
9.143025448137e-05
9.188025448137e-05
9.233025448137e-05
9.278025448137e-05
9.323025448137e-05
9.368025448137e-05
9.413025448137e-05
9.458025448137e-05
9.503025448137e-05
9.548025448137e-05
9.593025448137e-05
9.638025448137e-05
9.683025448137e-05
9.728025448137e-05
9.773025448137e-05
9.818025448137e-05
9.863025448137e-05
9.908025448137e-05
9.953025448137e-05
9.998025448137e-05
1.000010000000e-04
1.000011000000e-04
1.000013000000e-04
1.000017000000e-04
1.000020000000e-04
1.000020800000e-04
1.000022400000e-04
1.000025600000e-04
1.000030000000e-04
1.000030640000e-04
1.000031920000e-04
1.000034480000e-04
1.000039600000e-04
1.000049840000e-04
1.000064210846e-04
1.000092952539e-04
1.000145745024e-04
1.000237002161e-04
1.000330190282e-04
1.000427010521e-04
1.000580430576e-04
1.000887270687e-04
1.001500950908e-04
1.002152473766e-04
1.003455519481e-04
1.006061610912e-04
1.010561610912e-04
1.015061610912e-04
1.019561610912e-04
1.024061610912e-04
1.028561610912e-04
1.033061610912e-04
1.037561610912e-04
1.042061610912e-04
1.046561610912e-04
1.051061610912e-04
1.055561610912e-04
1.060061610912e-04
1.064561610912e-04
1.069061610912e-04
1.073561610912e-04
1.078061610912e-04
1.082561610912e-04
1.087061610912e-04
1.091561610912e-04
1.096061610912e-04
1.100561610912e-04
1.105061610912e-04
1.109561610912e-04
1.114061610912e-04
1.118561610912e-04
1.123061610912e-04
1.127561610912e-04
1.132061610912e-04
1.136561610912e-04
1.141061610912e-04
1.145561610912e-04
1.150061610912e-04
1.154561610912e-04
1.159061610912e-04
1.163561610912e-04
1.168061610912e-04
1.172561610912e-04
1.177061610912e-04
1.181561610912e-04
1.186061610912e-04
1.190561610912e-04
1.195061610912e-04
1.199561610912e-04
1.204061610912e-04
1.208561610912e-04
1.213061610912e-04
1.217561610912e-04
1.222061610912e-04
1.226561610912e-04
1.231061610912e-04
1.235561610912e-04
1.240061610912e-04
1.244561610912e-04
1.249061610912e-04
1.253561610912e-04
1.258061610912e-04
1.262561610912e-04
1.267061610912e-04
1.271561610912e-04
1.276061610912e-04
1.280561610912e-04
1.285061610912e-04
1.289561610912e-04
1.294061610912e-04
1.298561610912e-04
1.303061610912e-04
1.307561610912e-04
1.312061610912e-04
1.316561610912e-04
1.321061610912e-04
1.325561610912e-04
1.330061610912e-04
1.334561610912e-04
1.339061610912e-04
1.343561610912e-04
1.348061610912e-04
1.352561610912e-04
1.357061610912e-04
1.361561610912e-04
1.366061610912e-04
1.370561610912e-04
1.375061610912e-04
1.379561610912e-04
1.384061610912e-04
1.388561610912e-04
1.393061610912e-04
1.397561610912e-04
1.402061610912e-04
1.406561610912e-04
1.411061610912e-04
1.415561610912e-04
1.420061610912e-04
1.424561610912e-04
1.429061610912e-04
1.433561610912e-04
1.438061610912e-04
1.442561610912e-04
1.447061610912e-04
1.451561610912e-04
1.456061610912e-04
1.460561610912e-04
1.465061610912e-04
1.469561610912e-04
1.474061610912e-04
1.478561610912e-04
1.483061610912e-04
1.487561610912e-04
1.492061610912e-04
1.496561610912e-04
1.500020000000e-04
1.500021000000e-04
1.500023000000e-04
1.500027000000e-04
1.500030000000e-04
1.500030800000e-04
1.500032400000e-04
1.500035600000e-04
1.500040000000e-04
1.500040640000e-04
1.500041920000e-04
1.500044480000e-04
1.500049600000e-04
1.500059840000e-04
1.500080320000e-04
1.500121280000e-04
1.500152369135e-04
1.500190667462e-04
1.500227138936e-04
1.500300081885e-04
1.500445967782e-04
1.500737739575e-04
1.501321283163e-04
1.502488370339e-04
1.504822544690e-04
1.509322544690e-04
1.513822544690e-04
1.518322544690e-04
1.522822544690e-04
1.527322544690e-04
1.531822544690e-04
1.536322544690e-04
1.540822544690e-04
1.545322544690e-04
1.549822544690e-04
1.554322544690e-04
1.558822544690e-04
1.563322544690e-04
1.567822544690e-04
1.572322544690e-04
1.576822544690e-04
1.581322544690e-04
1.585822544690e-04
1.590322544690e-04
1.594822544690e-04
1.599322544690e-04
1.603822544690e-04
1.608322544690e-04
1.612822544690e-04
1.617322544690e-04
1.621822544690e-04
1.626322544690e-04
1.630822544690e-04
1.635322544690e-04
1.639822544690e-04
1.644322544690e-04
1.648822544690e-04
1.653322544690e-04
1.657822544690e-04
1.662322544690e-04
1.666822544690e-04
1.671322544690e-04
1.675822544690e-04
1.680322544690e-04
1.684822544690e-04
1.689322544690e-04
1.693822544690e-04
1.698322544690e-04
1.702822544690e-04
1.707322544690e-04
1.711822544690e-04
1.716322544690e-04
1.720822544690e-04
1.725322544690e-04
1.729822544690e-04
1.734322544690e-04
1.738822544690e-04
1.743322544690e-04
1.747822544690e-04
1.752322544690e-04
1.756822544690e-04
1.761322544690e-04
1.765822544690e-04
1.770322544690e-04
1.774822544690e-04
1.779322544690e-04
1.783822544690e-04
1.788322544690e-04
1.792822544690e-04
1.797322544690e-04
1.800000000000e-04
</indep>
<dep tran.v(v_puso_cuadrado) time>
0.000000000000e+00
5.000000000000e-02
7.814208499861e-02
1.344262549958e-01
2.469945949903e-01
4.584187950399e-01
8.812671951393e-01
1.726963995338e+00
3.418357595736e+00
5.000000000000e+00
5.000000000000e+00
5.000000000000e+00
5.000000000000e+00
5.000000000000e+00
5.000000000000e+00
5.000000000000e+00
5.000000000000e+00
5.000000000000e+00
5.000000000000e+00
5.000000000000e+00
5.000000000000e+00
5.000000000000e+00
5.000000000000e+00
5.000000000000e+00
5.000000000000e+00
5.000000000000e+00
5.000000000000e+00
5.000000000000e+00
5.000000000000e+00
5.000000000000e+00
5.000000000000e+00
5.000000000000e+00
5.000000000000e+00
5.000000000000e+00
5.000000000000e+00
5.000000000000e+00
5.000000000000e+00
5.000000000000e+00
5.000000000000e+00
5.000000000000e+00
5.000000000000e+00
5.000000000000e+00
5.000000000000e+00
5.000000000000e+00
5.000000000000e+00
5.000000000000e+00
5.000000000000e+00
5.000000000000e+00
5.000000000000e+00
5.000000000000e+00
5.000000000000e+00
5.000000000000e+00
5.000000000000e+00
5.000000000000e+00
5.000000000000e+00
5.000000000000e+00
5.000000000000e+00
5.000000000000e+00
5.000000000000e+00
5.000000000000e+00
5.000000000000e+00
5.000000000000e+00
5.000000000000e+00
5.000000000000e+00
5.000000000000e+00
5.000000000000e+00
5.000000000000e+00
5.000000000000e+00
5.000000000000e+00
5.000000000000e+00
5.000000000000e+00
5.000000000000e+00
5.000000000000e+00
5.000000000000e+00
5.000000000000e+00
5.000000000000e+00
5.000000000000e+00
5.000000000000e+00
5.000000000000e+00
5.000000000000e+00
5.000000000000e+00
5.000000000000e+00
5.000000000000e+00
5.000000000000e+00
5.000000000000e+00
5.000000000000e+00
5.000000000000e+00
5.000000000000e+00
5.000000000000e+00
5.000000000000e+00
5.000000000000e+00
5.000000000000e+00
5.000000000000e+00
5.000000000000e+00
5.000000000000e+00
5.000000000000e+00
5.000000000000e+00
5.000000000000e+00
5.000000000000e+00
5.000000000000e+00
5.000000000000e+00
5.000000000000e+00
5.000000000000e+00
5.000000000000e+00
5.000000000000e+00
5.000000000000e+00
5.000000000000e+00
5.000000000000e+00
5.000000000000e+00
5.000000000000e+00
5.000000000000e+00
5.000000000000e+00
5.000000000000e+00
5.000000000000e+00
5.000000000000e+00
5.000000000000e+00
5.000000000000e+00
5.000000000000e+00
5.000000000000e+00
5.000000000000e+00
5.000000000000e+00
5.000000000000e+00
5.000000000000e+00
5.000000000000e+00
5.000000000000e+00
5.000000000000e+00
5.000000000000e+00
5.000000000000e+00
5.000000000000e+00
5.000000000000e+00
5.000000000000e+00
5.000000000000e+00
5.000000000000e+00
5.000000000000e+00
5.000000000000e+00
5.000000000000e+00
5.000000000000e+00
4.499999999999e+00
3.499999999997e+00
1.499999999992e+00
0.000000000000e+00
-3.999999999602e-01
-1.199999999948e+00
-2.799999999959e+00
-5.000000000000e+00
-5.000000000000e+00
-5.000000000000e+00
-5.000000000000e+00
-5.000000000000e+00
-5.000000000000e+00
-5.000000000000e+00
-5.000000000000e+00
-5.000000000000e+00
-5.000000000000e+00
-5.000000000000e+00
-5.000000000000e+00
-5.000000000000e+00
-5.000000000000e+00
-5.000000000000e+00
-5.000000000000e+00
-5.000000000000e+00
-5.000000000000e+00
-5.000000000000e+00
-5.000000000000e+00
-5.000000000000e+00
-5.000000000000e+00
-5.000000000000e+00
-5.000000000000e+00
-5.000000000000e+00
-5.000000000000e+00
-5.000000000000e+00
-5.000000000000e+00
-5.000000000000e+00
-5.000000000000e+00
-5.000000000000e+00
-5.000000000000e+00
-5.000000000000e+00
-5.000000000000e+00
-5.000000000000e+00
-5.000000000000e+00
-5.000000000000e+00
-5.000000000000e+00
-5.000000000000e+00
-5.000000000000e+00
-5.000000000000e+00
-5.000000000000e+00
-5.000000000000e+00
-5.000000000000e+00
-5.000000000000e+00
-5.000000000000e+00
-5.000000000000e+00
-5.000000000000e+00
-5.000000000000e+00
-5.000000000000e+00
-5.000000000000e+00
-5.000000000000e+00
-5.000000000000e+00
-5.000000000000e+00
-5.000000000000e+00
-5.000000000000e+00
-5.000000000000e+00
-5.000000000000e+00
-5.000000000000e+00
-5.000000000000e+00
-5.000000000000e+00
-5.000000000000e+00
-5.000000000000e+00
-5.000000000000e+00
-5.000000000000e+00
-5.000000000000e+00
-5.000000000000e+00
-5.000000000000e+00
-5.000000000000e+00
-5.000000000000e+00
-5.000000000000e+00
-5.000000000000e+00
-5.000000000000e+00
-5.000000000000e+00
-5.000000000000e+00
-5.000000000000e+00
-5.000000000000e+00
-5.000000000000e+00
-5.000000000000e+00
-5.000000000000e+00
-5.000000000000e+00
-5.000000000000e+00
-5.000000000000e+00
-5.000000000000e+00
-5.000000000000e+00
-5.000000000000e+00
-5.000000000000e+00
-5.000000000000e+00
-5.000000000000e+00
-5.000000000000e+00
-5.000000000000e+00
-5.000000000000e+00
-5.000000000000e+00
-5.000000000000e+00
-5.000000000000e+00
-5.000000000000e+00
-5.000000000000e+00
-5.000000000000e+00
-5.000000000000e+00
-5.000000000000e+00
-5.000000000000e+00
-5.000000000000e+00
-5.000000000000e+00
-5.000000000000e+00
-5.000000000000e+00
-5.000000000000e+00
-5.000000000000e+00
-5.000000000000e+00
-5.000000000000e+00
-5.000000000000e+00
-5.000000000000e+00
-5.000000000000e+00
-5.000000000000e+00
-5.000000000000e+00
-5.000000000000e+00
-5.000000000000e+00
-5.000000000000e+00
-5.000000000000e+00
-5.000000000000e+00
-5.000000000000e+00
-5.000000000000e+00
-5.000000000000e+00
-5.000000000000e+00
-5.000000000000e+00
-5.000000000000e+00
-5.000000000000e+00
-5.000000000000e+00
-4.999999999966e+00
-4.499999999931e+00
-3.499999999929e+00
-1.499999999925e+00
0.000000000000e+00
4.000000000280e-01
1.200000000016e+00
2.799999999993e+00
5.000000000000e+00
5.000000000000e+00
5.000000000000e+00
5.000000000000e+00
5.000000000000e+00
5.000000000000e+00
5.000000000000e+00
5.000000000000e+00
5.000000000000e+00
5.000000000000e+00
5.000000000000e+00
5.000000000000e+00
5.000000000000e+00
5.000000000000e+00
5.000000000000e+00
5.000000000000e+00
5.000000000000e+00
5.000000000000e+00
5.000000000000e+00
5.000000000000e+00
5.000000000000e+00
5.000000000000e+00
5.000000000000e+00
5.000000000000e+00
5.000000000000e+00
5.000000000000e+00
5.000000000000e+00
5.000000000000e+00
5.000000000000e+00
5.000000000000e+00
5.000000000000e+00
5.000000000000e+00
5.000000000000e+00
5.000000000000e+00
5.000000000000e+00
5.000000000000e+00
5.000000000000e+00
5.000000000000e+00
5.000000000000e+00
5.000000000000e+00
5.000000000000e+00
5.000000000000e+00
5.000000000000e+00
5.000000000000e+00
5.000000000000e+00
5.000000000000e+00
5.000000000000e+00
5.000000000000e+00
5.000000000000e+00
5.000000000000e+00
5.000000000000e+00
5.000000000000e+00
5.000000000000e+00
5.000000000000e+00
5.000000000000e+00
5.000000000000e+00
5.000000000000e+00
5.000000000000e+00
5.000000000000e+00
5.000000000000e+00
5.000000000000e+00
5.000000000000e+00
5.000000000000e+00
5.000000000000e+00
5.000000000000e+00
5.000000000000e+00
5.000000000000e+00
5.000000000000e+00
5.000000000000e+00
5.000000000000e+00
5.000000000000e+00
5.000000000000e+00
5.000000000000e+00
5.000000000000e+00
5.000000000000e+00
5.000000000000e+00
5.000000000000e+00
5.000000000000e+00
5.000000000000e+00
5.000000000000e+00
5.000000000000e+00
5.000000000000e+00
5.000000000000e+00
5.000000000000e+00
5.000000000000e+00
5.000000000000e+00
5.000000000000e+00
5.000000000000e+00
5.000000000000e+00
5.000000000000e+00
5.000000000000e+00
5.000000000000e+00
5.000000000000e+00
5.000000000000e+00
5.000000000000e+00
5.000000000000e+00
5.000000000000e+00
5.000000000000e+00
5.000000000000e+00
5.000000000000e+00
5.000000000000e+00
5.000000000000e+00
5.000000000000e+00
5.000000000000e+00
5.000000000000e+00
5.000000000000e+00
5.000000000000e+00
5.000000000000e+00
5.000000000000e+00
5.000000000000e+00
5.000000000000e+00
5.000000000000e+00
5.000000000000e+00
5.000000000000e+00
5.000000000000e+00
5.000000000000e+00
5.000000000000e+00
5.000000000000e+00
5.000000000000e+00
5.000000000000e+00
5.000000000000e+00
5.000000000000e+00
5.000000000000e+00
5.000000000000e+00
5.000000000000e+00
5.000000000000e+00
5.000000000000e+00
5.000000000000e+00
4.500000000033e+00
3.499999999963e+00
1.499999999958e+00
0.000000000000e+00
-3.999999999941e-01
-1.200000000050e+00
-2.800000000026e+00
-4.999999999909e+00
-5.000000000000e+00
-5.000000000000e+00
-5.000000000000e+00
-5.000000000000e+00
-5.000000000000e+00
-5.000000000000e+00
-5.000000000000e+00
-5.000000000000e+00
-5.000000000000e+00
-5.000000000000e+00
-5.000000000000e+00
-5.000000000000e+00
-5.000000000000e+00
-5.000000000000e+00
-5.000000000000e+00
-5.000000000000e+00
-5.000000000000e+00
-5.000000000000e+00
-5.000000000000e+00
-5.000000000000e+00
-5.000000000000e+00
-5.000000000000e+00
-5.000000000000e+00
-5.000000000000e+00
-5.000000000000e+00
-5.000000000000e+00
-5.000000000000e+00
-5.000000000000e+00
-5.000000000000e+00
-5.000000000000e+00
-5.000000000000e+00
-5.000000000000e+00
-5.000000000000e+00
-5.000000000000e+00
-5.000000000000e+00
-5.000000000000e+00
-5.000000000000e+00
-5.000000000000e+00
-5.000000000000e+00
-5.000000000000e+00
-5.000000000000e+00
-5.000000000000e+00
-5.000000000000e+00
-5.000000000000e+00
-5.000000000000e+00
-5.000000000000e+00
-5.000000000000e+00
-5.000000000000e+00
-5.000000000000e+00
-5.000000000000e+00
-5.000000000000e+00
-5.000000000000e+00
-5.000000000000e+00
-5.000000000000e+00
-5.000000000000e+00
-5.000000000000e+00
-5.000000000000e+00
-5.000000000000e+00
-5.000000000000e+00
-5.000000000000e+00
-5.000000000000e+00
-5.000000000000e+00
-5.000000000000e+00
-5.000000000000e+00
-5.000000000000e+00
-5.000000000000e+00
-5.000000000000e+00
-5.000000000000e+00
-5.000000000000e+00
-5.000000000000e+00
-5.000000000000e+00
-5.000000000000e+00
-5.000000000000e+00
-5.000000000000e+00
-5.000000000000e+00
-5.000000000000e+00
-5.000000000000e+00
-5.000000000000e+00
-5.000000000000e+00
-5.000000000000e+00
-5.000000000000e+00
-5.000000000000e+00
</dep>
<dep tran.v(v_resistencia) time>
1.776117241022e-23
4.987189997392e-02
7.790245501772e-02
1.338848325883e-01
2.453786912725e-01
4.531020585377e-01
8.620891516694e-01
1.655505102097e+00
3.158497606826e+00
4.520738997052e+00
4.486647265935e+00
4.444417680466e+00
4.401711029002e+00
4.361826697468e+00
4.327636944924e+00
4.304917900787e+00
4.292609902870e+00
4.286130268920e+00
4.283288778455e+00
4.283235514304e+00
4.283696568147e+00
4.284181377908e+00
4.284100428403e+00
4.284140814969e+00
4.284127602421e+00
4.284138965802e+00
4.284128712874e+00
4.284138403070e+00
4.284129205962e+00
4.284137945183e+00
4.284129643720e+00
4.284137530699e+00
4.284130038722e+00
4.284137156574e+00
4.284130395152e+00
4.284136818884e+00
4.284130716782e+00
4.284136514084e+00
4.284131007012e+00
4.284136238975e+00
