<Qucs Dataset 0.0.24>
<indep time 249>
8.044709014516e-05
8.094709014516e-05
8.144709014516e-05
8.194709014516e-05
8.244709014516e-05
8.294709014516e-05
8.344709014516e-05
8.394709014516e-05
8.444709014516e-05
8.494709014516e-05
8.544709014516e-05
8.594709014516e-05
8.644709014516e-05
8.694709014516e-05
8.744709014516e-05
8.794709014516e-05
8.844709014516e-05
8.894709014516e-05
8.944709014516e-05
8.994709014516e-05
9.044709014516e-05
9.094709014516e-05
9.144709014516e-05
9.194709014516e-05
9.244709014516e-05
9.294709014516e-05
9.344709014516e-05
9.394709014516e-05
9.444709014516e-05
9.494709014516e-05
9.544709014516e-05
9.594709014516e-05
9.644709014516e-05
9.694709014516e-05
9.744709014516e-05
9.794709014516e-05
9.844709014516e-05
9.894709014516e-05
9.944709014516e-05
9.994709014516e-05
1.000010000000e-04
1.000011000000e-04
1.000013000000e-04
1.000017000000e-04
1.000020000000e-04
1.000020800000e-04
1.000022400000e-04
1.000025600000e-04
1.000030000000e-04
1.000030640000e-04
1.000031920000e-04
1.000034480000e-04
1.000039600000e-04
1.000049840000e-04
1.000064210862e-04
1.000092952586e-04
1.000145744958e-04
1.000237003029e-04
1.000330190079e-04
1.000427011310e-04
1.000580430860e-04
1.000887269960e-04
1.001500948160e-04
1.002152475484e-04
1.003455530132e-04
1.006061639428e-04
1.011061639428e-04
1.016061639428e-04
1.021061639428e-04
1.026061639428e-04
1.031061639428e-04
1.036061639428e-04
1.041061639428e-04
1.046061639428e-04
1.051061639428e-04
1.056061639428e-04
1.061061639428e-04
1.066061639428e-04
1.071061639428e-04
1.076061639428e-04
1.081061639428e-04
1.086061639428e-04
1.091061639428e-04
1.096061639428e-04
1.101061639428e-04
1.106061639428e-04
1.111061639428e-04
1.116061639428e-04
1.121061639428e-04
1.126061639428e-04
1.131061639428e-04
1.136061639428e-04
1.141061639428e-04
1.146061639428e-04
1.151061639428e-04
1.156061639428e-04
1.161061639428e-04
1.166061639428e-04
1.171061639428e-04
1.176061639428e-04
1.181061639428e-04
1.186061639428e-04
1.191061639428e-04
1.196061639428e-04
1.201061639428e-04
1.206061639428e-04
1.211061639428e-04
1.216061639428e-04
1.221061639428e-04
1.226061639428e-04
1.231061639428e-04
1.236061639428e-04
1.241061639428e-04
1.246061639428e-04
1.251061639428e-04
1.256061639428e-04
1.261061639428e-04
1.266061639428e-04
1.271061639428e-04
1.276061639428e-04
1.281061639428e-04
1.286061639428e-04
1.291061639428e-04
1.296061639428e-04
1.301061639428e-04
1.306061639428e-04
1.311061639428e-04
1.316061639428e-04
1.321061639428e-04
1.326061639428e-04
1.331061639428e-04
1.336061639428e-04
1.341061639428e-04
1.346061639428e-04
1.351061639428e-04
1.356061639428e-04
1.361061639428e-04
1.366061639428e-04
1.371061639428e-04
1.376061639428e-04
1.381061639428e-04
1.386061639428e-04
1.391061639428e-04
1.396061639428e-04
1.401061639428e-04
1.406061639428e-04
1.411061639428e-04
1.416061639428e-04
1.421061639428e-04
1.426061639428e-04
1.431061639428e-04
1.436061639428e-04
1.441061639428e-04
1.446061639428e-04
1.451061639428e-04
1.456061639428e-04
1.461061639428e-04
1.466061639428e-04
1.471061639428e-04
1.476061639428e-04
1.481061639428e-04
1.486061639428e-04
1.491061639428e-04
1.496061639428e-04
1.500020000000e-04
1.500021000000e-04
1.500023000000e-04
1.500027000000e-04
1.500030000000e-04
1.500030800000e-04
1.500032400000e-04
1.500035600000e-04
1.500040000000e-04
1.500040640000e-04
1.500041920000e-04
1.500044480000e-04
1.500049600000e-04
1.500059840000e-04
1.500080320000e-04
1.500121280000e-04
1.500152369161e-04
1.500190667471e-04
1.500227138979e-04
1.500300081996e-04
1.500445968028e-04
1.500737740094e-04
1.501321284225e-04
1.502488372486e-04
1.504822549010e-04
1.509490902056e-04
1.514490902056e-04
1.519490902056e-04
1.524490902056e-04
1.529490902056e-04
1.534490902056e-04
1.539490902056e-04
1.544490902056e-04
1.549490902056e-04
1.554490902056e-04
1.559490902056e-04
1.564490902056e-04
1.569490902056e-04
1.574490902056e-04
1.579490902056e-04
1.584490902056e-04
1.589490902056e-04
1.594490902056e-04
1.599490902056e-04
1.604490902056e-04
1.609490902056e-04
1.614490902056e-04
1.619490902056e-04
1.624490902056e-04
1.629490902056e-04
1.634490902056e-04
1.639490902056e-04
1.644490902056e-04
1.649490902056e-04
1.654490902056e-04
1.659490902056e-04
1.664490902056e-04
1.669490902056e-04
1.674490902056e-04
1.679490902056e-04
1.684490902056e-04
1.689490902056e-04
1.694490902056e-04
1.699490902056e-04
1.704490902056e-04
1.709490902056e-04
1.714490902056e-04
1.719490902056e-04
1.724490902056e-04
1.729490902056e-04
1.734490902056e-04
1.739490902056e-04
1.744490902056e-04
1.749490902056e-04
1.754490902056e-04
1.759490902056e-04
1.764490902056e-04
1.769490902056e-04
1.774490902056e-04
1.779490902056e-04
1.784490902056e-04
1.789490902056e-04
1.794490902056e-04
1.799490902056e-04
1.800000000000e-04
</indep>
<dep tran.v(vf) time>
-5.000000000000e+00
-5.000000000000e+00
-5.000000000000e+00
-5.000000000000e+00
-5.000000000000e+00
-5.000000000000e+00
-5.000000000000e+00
-5.000000000000e+00
-5.000000000000e+00
-5.000000000000e+00
-5.000000000000e+00
-5.000000000000e+00
-5.000000000000e+00
-5.000000000000e+00
-5.000000000000e+00
-5.000000000000e+00
-5.000000000000e+00
-5.000000000000e+00
-5.000000000000e+00
-5.000000000000e+00
-5.000000000000e+00
-5.000000000000e+00
-5.000000000000e+00
-5.000000000000e+00
-5.000000000000e+00
-5.000000000000e+00
-5.000000000000e+00
-5.000000000000e+00
-5.000000000000e+00
-5.000000000000e+00
-5.000000000000e+00
-5.000000000000e+00
-5.000000000000e+00
-5.000000000000e+00
-5.000000000000e+00
-5.000000000000e+00
-5.000000000000e+00
-5.000000000000e+00
-5.000000000000e+00
-5.000000000000e+00
-4.999999999966e+00
-4.499999999931e+00
-3.499999999929e+00
-1.499999999925e+00
0.000000000000e+00
4.000000000280e-01
1.200000000016e+00
2.799999999993e+00
5.000000000000e+00
5.000000000000e+00
5.000000000000e+00
5.000000000000e+00
5.000000000000e+00
5.000000000000e+00
5.000000000000e+00
5.000000000000e+00
5.000000000000e+00
5.000000000000e+00
5.000000000000e+00
5.000000000000e+00
5.000000000000e+00
5.000000000000e+00
5.000000000000e+00
5.000000000000e+00
5.000000000000e+00
5.000000000000e+00
5.000000000000e+00
5.000000000000e+00
5.000000000000e+00
5.000000000000e+00
5.000000000000e+00
5.000000000000e+00
5.000000000000e+00
5.000000000000e+00
5.000000000000e+00
5.000000000000e+00
5.000000000000e+00
5.000000000000e+00
5.000000000000e+00
5.000000000000e+00
5.000000000000e+00
5.000000000000e+00
5.000000000000e+00
5.000000000000e+00
5.000000000000e+00
5.000000000000e+00
5.000000000000e+00
5.000000000000e+00
5.000000000000e+00
5.000000000000e+00
5.000000000000e+00
5.000000000000e+00
5.000000000000e+00
5.000000000000e+00
5.000000000000e+00
5.000000000000e+00
5.000000000000e+00
5.000000000000e+00
5.000000000000e+00
5.000000000000e+00
5.000000000000e+00
5.000000000000e+00
5.000000000000e+00
5.000000000000e+00
5.000000000000e+00
5.000000000000e+00
5.000000000000e+00
5.000000000000e+00
5.000000000000e+00
5.000000000000e+00
5.000000000000e+00
5.000000000000e+00
5.000000000000e+00
5.000000000000e+00
5.000000000000e+00
5.000000000000e+00
5.000000000000e+00
5.000000000000e+00
5.000000000000e+00
5.000000000000e+00
5.000000000000e+00
5.000000000000e+00
5.000000000000e+00
5.000000000000e+00
5.000000000000e+00
5.000000000000e+00
5.000000000000e+00
5.000000000000e+00
5.000000000000e+00
5.000000000000e+00
5.000000000000e+00
5.000000000000e+00
5.000000000000e+00
5.000000000000e+00
5.000000000000e+00
5.000000000000e+00
5.000000000000e+00
5.000000000000e+00
5.000000000000e+00
5.000000000000e+00
5.000000000000e+00
5.000000000000e+00
5.000000000000e+00
5.000000000000e+00
5.000000000000e+00
5.000000000000e+00
5.000000000000e+00
5.000000000000e+00
5.000000000000e+00
5.000000000000e+00
5.000000000000e+00
5.000000000000e+00
5.000000000000e+00
5.000000000000e+00
5.000000000000e+00
5.000000000000e+00
5.000000000000e+00
5.000000000000e+00
5.000000000000e+00
5.000000000000e+00
5.000000000000e+00
5.000000000000e+00
5.000000000000e+00
5.000000000000e+00
5.000000000000e+00
4.500000000033e+00
3.499999999963e+00
1.499999999958e+00
0.000000000000e+00
-3.999999999941e-01
-1.200000000050e+00
-2.800000000026e+00
-4.999999999909e+00
-5.000000000000e+00
-5.000000000000e+00
-5.000000000000e+00
-5.000000000000e+00
-5.000000000000e+00
-5.000000000000e+00
-5.000000000000e+00
-5.000000000000e+00
-5.000000000000e+00
-5.000000000000e+00
-5.000000000000e+00
-5.000000000000e+00
-5.000000000000e+00
-5.000000000000e+00
-5.000000000000e+00
-5.000000000000e+00
-5.000000000000e+00
-5.000000000000e+00
-5.000000000000e+00
-5.000000000000e+00
-5.000000000000e+00
-5.000000000000e+00
-5.000000000000e+00
-5.000000000000e+00
-5.000000000000e+00
-5.000000000000e+00
-5.000000000000e+00
-5.000000000000e+00
-5.000000000000e+00
-5.000000000000e+00
-5.000000000000e+00
-5.000000000000e+00
-5.000000000000e+00
-5.000000000000e+00
-5.000000000000e+00
-5.000000000000e+00
-5.000000000000e+00
-5.000000000000e+00
-5.000000000000e+00
-5.000000000000e+00
-5.000000000000e+00
-5.000000000000e+00
-5.000000000000e+00
-5.000000000000e+00
-5.000000000000e+00
-5.000000000000e+00
-5.000000000000e+00
-5.000000000000e+00
-5.000000000000e+00
-5.000000000000e+00
-5.000000000000e+00
-5.000000000000e+00
-5.000000000000e+00
-5.000000000000e+00
-5.000000000000e+00
-5.000000000000e+00
-5.000000000000e+00
-5.000000000000e+00
-5.000000000000e+00
-5.000000000000e+00
-5.000000000000e+00
-5.000000000000e+00
-5.000000000000e+00
-5.000000000000e+00
-5.000000000000e+00
-5.000000000000e+00
-5.000000000000e+00
-5.000000000000e+00
-5.000000000000e+00
-5.000000000000e+00
-5.000000000000e+00
-5.000000000000e+00
-5.000000000000e+00
-5.000000000000e+00
-5.000000000000e+00
-5.000000000000e+00
</dep>
<dep tran.v(vr) time>
-1.173036354080e-06
7.040965283797e-07
-1.143391915447e-06
6.749202471068e-07
-1.114676397379e-06
6.466582164258e-07
-1.086860691689e-06
6.192817879475e-07
-1.059916602431e-06
5.927632109326e-07
-1.033816817153e-06
5.670756043213e-07
-1.008534879270e-06
5.421929292829e-07
-9.840451611481e-07
5.180899629448e-07
-9.603228382921e-07
4.947422727608e-07
-9.373438639437e-07
4.721261919402e-07
-9.150849451037e-07
4.502187951130e-07
-8.935235185289e-07
4.289978754873e-07
-8.726377280013e-07
4.084419220132e-07
-8.524064022339e-07
3.885300976711e-07
-8.328090332285e-07
3.692422183427e-07
-8.138257556745e-07
3.505587325425e-07
-7.954373268601e-07
3.324607013855e-07
-7.776251069319e-07
3.149297793381e-07
-7.603710400969e-07
2.979481958029e-07
-7.436576364428e-07
2.814987371189e-07
-6.655840070202e-07
4.760405288494e-01
1.382858001108e+00
2.953539952396e+00
3.955654570251e+00
4.198686884919e+00
4.672994379552e+00
5.553772577720e+00
6.674175218014e+00
6.519253632066e+00
6.226587305188e+00
5.716054911997e+00
4.946607436263e+00
4.392729826871e+00
4.337200407603e+00
4.304189366643e+00
4.284710420707e+00
4.279884198045e+00
4.282179679696e+00
4.283222592787e+00
4.284233163370e+00
4.284027032858e+00
4.284138908889e+00
4.284126602348e+00
4.284139396440e+00
4.284128438523e+00
4.284138680791e+00
4.284128911769e+00
4.284138247080e+00
4.284129333716e+00
4.284137845582e+00
4.284129718386e+00
4.284137479445e+00
4.284130069077e+00
4.284137145556e+00
4.284130388792e+00
4.284136841079e+00
4.284130680273e+00
4.284136563427e+00
4.284130946014e+00
4.284136310238e+00
4.284131188292e+00
4.284136079359e+00
4.284131409180e+00
4.284135868826e+00
4.284131610568e+00
4.284135676848e+00
4.284131794179e+00
4.284135501790e+00
4.284131961583e+00
4.284135342162e+00
4.284132114211e+00
4.284135196606e+00
4.284132253370e+00
4.284135063881e+00
4.284132380247e+00
4.284134942857e+00
4.284132495927e+00
4.284134832502e+00
4.284132601400e+00
4.284134731877e+00
4.284132697565e+00
4.284134640124e+00
4.284132785246e+00
4.284134556462e+00
4.284132865190e+00
4.284134480176e+00
4.284132938080e+00
4.284134410617e+00
4.284133004539e+00
4.284134347191e+00
4.284133065135e+00
4.284134289359e+00
4.284133120384e+00
4.284134236627e+00
4.284133170760e+00
4.284134188544e+00
4.284133216691e+00
4.284134144702e+00
4.284133258570e+00
4.284134104727e+00
4.284133296755e+00
4.284134068277e+00
4.284133331571e+00
4.284134035041e+00
4.284133363316e+00
4.284134004737e+00
4.284133392260e+00
4.284133977105e+00
4.284133418651e+00
4.284133951910e+00
4.284133442714e+00
4.284133928938e+00
4.284133464654e+00
4.284133907991e+00
4.284133484659e+00
4.284133888892e+00
4.284133502900e+00
4.284133871477e+00
4.284133519531e+00
4.284133855598e+00
4.284133534695e+00
4.284133841120e+00
4.284133548522e+00
4.284133827919e+00
4.284133561129e+00
4.284133815882e+00
4.284133572624e+00
4.284133804907e+00
4.284133583105e+00
4.284133794899e+00
4.284133592662e+00
4.284133785775e+00
4.284133601375e+00
4.284133777455e+00
4.284133609320e+00
4.284133769869e+00
4.284133616564e+00
4.284133762952e+00
4.284133623170e+00
4.284133756645e+00
4.284133629192e+00
4.284133750895e+00
4.284133634684e+00
4.284133744997e+00
3.784252001851e+00
2.784655118372e+00
7.864510564714e-01
-7.112913777715e-01
-1.110515759116e+00
-1.908820220912e+00
-3.504572540763e+00
-5.696421745669e+00
-5.694988273908e+00
-5.692004556699e+00
-5.685576459077e+00
-5.670258881565e+00
-5.613670473258e+00
-3.622692656082e+00
-2.264238861923e-01
-2.865659116819e-02
-5.617775933207e-04
-2.471094006706e-05
6.971863973471e-06
-4.340175591144e-06
2.898793837303e-06
-2.953683671758e-06
2.319866054590e-06
-2.688479109891e-06
2.192868402140e-06
-2.608652575856e-06
2.117040883216e-06
-2.534022518833e-06
2.043589418320e-06
-2.461731026492e-06
1.972439584837e-06
-2.391704817424e-06
1.903519260160e-06
-2.323872908029e-06
1.836758581758e-06
-2.258166539058e-06
1.772089876263e-06
-2.194519105804e-06
1.709447590849e-06
-2.132866090736e-06
1.648768226829e-06
-2.073144997949e-06
1.589990275205e-06
-2.015295289801e-06
1.533054154547e-06
-1.959258325739e-06
1.477902150278e-06
-1.904977302729e-06
1.424478356417e-06
-1.852397197535e-06
1.372728618727e-06
-1.801464711300e-06
1.322600480053e-06
-1.752128215182e-06
1.274043126852e-06
-1.704337698152e-06
1.227007338032e-06
-1.658044716392e-06
1.181445434685e-06
-1.613202344000e-06
1.137311232094e-06
-1.569765125588e-06
1.094559992608e-06
-1.527689030015e-06
1.053148380503e-06
-1.486931405989e-06
1.013034418067e-06
-1.447450938642e-06
9.741774428598e-07
-1.409207607703e-06
9.365380666954e-07
-1.372162647055e-06
9.000781356697e-07
-1.336278505334e-06
8.647606913464e-07
-1.301518807680e-06
8.305499334602e-07
-1.267848319338e-06
7.974111835077e-07
-1.235232909347e-06
7.653108497138e-07
-1.203639516494e-06
7.342163929128e-07
-1.048837995066e-06
</dep>
