<Qucs Dataset 0.0.24>
<indep v(v-sweep) 31>
0.000000000000e+00
8.333330000000e-01
1.666666000000e+00
2.499999000000e+00
3.333332000000e+00
4.166665000000e+00
4.999998000000e+00
5.833331000000e+00
6.666664000000e+00
7.499997000000e+00
8.333330000000e+00
9.166663000000e+00
9.999996000000e+00
1.083332900000e+01
1.166666200000e+01
1.249999500000e+01
1.333332800000e+01
1.416666100000e+01
1.499999400000e+01
1.583332700000e+01
1.666666000000e+01
1.749999300000e+01
1.833332600000e+01
1.916665900000e+01
1.999999200000e+01
2.083332500000e+01
2.166665800000e+01
2.249999100000e+01
2.333332400000e+01
2.416665700000e+01
2.499999000000e+01
</indep>
<dep i(vidiodo) v(v-sweep)>
-5.580513854146e-25
6.780771132313e-04
2.239018735647e-03
3.857951441820e-03
5.493289505461e-03
7.136373692806e-03
8.784756628918e-03
1.043619296726e-02
1.208976759531e-02
1.374498134876e-02
1.540147203542e-02
1.705898153225e-02
1.871732274898e-02
2.037635565307e-02
2.203597272123e-02
2.369608963753e-02
2.535663908029e-02
2.701756645110e-02
2.867882686332e-02
3.034038297045e-02
3.200220336851e-02
3.366426139985e-02
3.532653424327e-02
3.698900221204e-02
3.865164820533e-02
4.031445727459e-02
4.197741627708e-02
4.364051359640e-02
4.530373891507e-02
4.696708302792e-02
4.863053768777e-02
</dep>
<dep v(vdiodo) v(v-sweep)>
2.790256927073e-22
4.942944433844e-01
5.471566321766e-01
5.710232790901e-01
5.866872472695e-01
5.984781535969e-01
6.076196855411e-01
6.152345163691e-01
6.217802023461e-01
6.275063256194e-01
6.325939822886e-01
6.371722338754e-01
6.413346255078e-01
6.451511734671e-01
6.486756393861e-01
6.519501812372e-01
6.550084598543e-01
6.578777744515e-01
6.605805683401e-01
6.631355147749e-01
6.655583157463e-01
6.678623000767e-01
6.700588783652e-01
6.721578939800e-01
6.741678973331e-01
6.760963627034e-01
6.779498614612e-01
6.797342018013e-01
6.814545424638e-01
6.831154860404e-01
6.847211561126e-01
</dep>
