<Qucs Dataset 0.0.24>
<indep v(v-sweep) 31>
0.000000000000e+00
8.333330000000e-01
1.666666000000e+00
2.499999000000e+00
3.333332000000e+00
4.166665000000e+00
4.999998000000e+00
5.833331000000e+00
6.666664000000e+00
7.499997000000e+00
8.333330000000e+00
9.166663000000e+00
9.999996000000e+00
1.083332900000e+01
1.166666200000e+01
1.249999500000e+01
1.333332800000e+01
1.416666100000e+01
1.499999400000e+01
1.583332700000e+01
1.666666000000e+01
1.749999300000e+01
1.833332600000e+01
1.916665900000e+01
1.999999200000e+01
2.083332500000e+01
2.166665800000e+01
2.249999100000e+01
2.333332400000e+01
2.416665700000e+01
2.499999000000e+01
</indep>
<dep i(vidiodo) v(v-sweep)>
6.635158109152e-27
4.914766372604e-04
2.050527052359e-03
3.674006425357e-03
5.312913428675e-03
6.958868884485e-03
8.609630364226e-03
1.026309803694e-02
1.191844066278e-02
1.357521927378e-02
1.523311301868e-02
1.689189361992e-02
1.855139640532e-02
2.021149855792e-02
2.187210603896e-02
2.353314528343e-02
2.519455767441e-02
2.685629575742e-02
2.851832057937e-02
3.018059977454e-02
3.184310615987e-02
3.350581668541e-02
3.516871163732e-02
3.683177402414e-02
3.849498909780e-02
4.015834397556e-02
4.182182733827e-02
4.348542918733e-02
4.514914064697e-02
4.681295380233e-02
4.847686156557e-02
</dep>
<dep v(vdiodo) v(v-sweep)>
-3.317579054576e-24
5.875946813698e-01
6.414024738204e-01
6.629957873213e-01
6.768752856624e-01
6.872305577573e-01
6.951828178868e-01
7.017819815307e-01
7.074436686120e-01
7.123873631090e-01
7.167734906606e-01
7.207161900411e-01
7.242977973379e-01
7.275797210420e-01
7.306089805219e-01
7.334223582851e-01
7.360491627969e-01
7.385131212895e-01
7.408337103150e-01
7.430271127324e-01
7.451069200633e-01
7.470846572949e-01
7.489701813377e-01
7.507719879291e-01
7.524974510993e-01
7.541530122218e-01
7.557443308640e-01
7.572764063365e-01
7.587536765126e-01
7.601800988332e-01
7.615592172154e-01
</dep>
