<Qucs Dataset 0.0.24>
<indep time 59>
0.000000000000e+00
1.000000000000e-07
2.000000000000e-07
4.000000000000e-07
8.000000000000e-07
1.600000000000e-06
3.200000000000e-06
6.400000000000e-06
1.280000000000e-05
2.560000000000e-05
4.560000000000e-05
6.560000000000e-05
8.560000000000e-05
1.056000000000e-04
1.256000000000e-04
1.456000000000e-04
1.656000000000e-04
1.856000000000e-04
2.056000000000e-04
2.256000000000e-04
2.456000000000e-04
2.656000000000e-04
2.856000000000e-04
3.056000000000e-04
3.256000000000e-04
3.456000000000e-04
3.656000000000e-04
3.856000000000e-04
4.056000000000e-04
4.256000000000e-04
4.456000000000e-04
4.656000000000e-04
4.856000000000e-04
5.056000000000e-04
5.256000000000e-04
5.456000000000e-04
5.656000000000e-04
5.856000000000e-04
6.056000000000e-04
6.256000000000e-04
6.456000000000e-04
6.656000000000e-04
6.856000000000e-04
7.056000000000e-04
7.256000000000e-04
7.456000000000e-04
7.656000000000e-04
7.856000000000e-04
8.056000000000e-04
8.256000000000e-04
8.456000000000e-04
8.656000000000e-04
8.856000000000e-04
9.056000000000e-04
9.256000000000e-04
9.456000000000e-04
9.656000000000e-04
9.856000000000e-04
1.000000000000e-03
</indep>
<dep tran.v(vb) time>
2.112248707543e+00
2.112248765752e+00
2.112247663111e+00
2.112246019481e+00
2.112244722545e+00
2.112244367734e+00
2.112244432939e+00
2.112244395029e+00
2.112244422690e+00
2.112244398759e+00
2.112244420893e+00
2.112244400063e+00
2.112244419680e+00
2.112244401190e+00
2.112244418618e+00
2.112244402192e+00
2.112244417674e+00
2.112244403082e+00
2.112244416835e+00
2.112244403872e+00
2.112244416089e+00
2.112244404575e+00
2.112244415427e+00
2.112244405200e+00
2.112244414838e+00
2.112244405754e+00
2.112244414315e+00
2.112244406247e+00
2.112244413851e+00
2.112244406685e+00
2.112244413438e+00
2.112244407075e+00
2.112244413071e+00
2.112244407421e+00
2.112244412744e+00
2.112244407728e+00
2.112244412455e+00
2.112244408001e+00
2.112244412197e+00
2.112244408244e+00
2.112244411968e+00
2.112244408460e+00
2.112244411765e+00
2.112244408651e+00
2.112244411584e+00
2.112244408822e+00
2.112244411424e+00
2.112244408973e+00
2.112244411281e+00
2.112244409107e+00
2.112244411155e+00
2.112244409227e+00
2.112244411042e+00
2.112244409333e+00
2.112244410942e+00
2.112244409427e+00
2.112244410853e+00
2.112244409511e+00
2.112244410759e+00
</dep>
<dep tran.v(vcc) time>
1.500000000000e+01
1.500000000000e+01
1.500000000000e+01
1.500000000000e+01
1.500000000000e+01
1.500000000000e+01
1.500000000000e+01
1.500000000000e+01
1.500000000000e+01
1.500000000000e+01
1.500000000000e+01
1.500000000000e+01
1.500000000000e+01
1.500000000000e+01
1.500000000000e+01
1.500000000000e+01
1.500000000000e+01
1.500000000000e+01
1.500000000000e+01
1.500000000000e+01
1.500000000000e+01
1.500000000000e+01
1.500000000000e+01
1.500000000000e+01
1.500000000000e+01
1.500000000000e+01
1.500000000000e+01
1.500000000000e+01
1.500000000000e+01
1.500000000000e+01
1.500000000000e+01
1.500000000000e+01
1.500000000000e+01
1.500000000000e+01
1.500000000000e+01
1.500000000000e+01
1.500000000000e+01
1.500000000000e+01
1.500000000000e+01
1.500000000000e+01
1.500000000000e+01
1.500000000000e+01
1.500000000000e+01
1.500000000000e+01
1.500000000000e+01
1.500000000000e+01
1.500000000000e+01
1.500000000000e+01
1.500000000000e+01
1.500000000000e+01
1.500000000000e+01
1.500000000000e+01
1.500000000000e+01
1.500000000000e+01
1.500000000000e+01
1.500000000000e+01
1.500000000000e+01
1.500000000000e+01
1.500000000000e+01
</dep>
<dep tran.v(ve) time>
1.371775621621e+00
1.371774410981e+00
1.371773641369e+00
1.371772491531e+00
1.371771584993e+00
1.371771337069e+00
1.371771383828e+00
1.371771358190e+00
1.371771377280e+00
1.371771360707e+00
1.371771376064e+00
1.371771361584e+00
1.371771375235e+00
1.371771362367e+00
1.371771374497e+00
1.371771363062e+00
1.371771373841e+00
1.371771363680e+00
1.371771373259e+00
1.371771364229e+00
1.371771372742e+00
1.371771364717e+00
1.371771372282e+00
1.371771365150e+00
1.371771371873e+00
1.371771365535e+00
1.371771371510e+00
1.371771365878e+00
1.371771371187e+00
1.371771366182e+00
1.371771370901e+00
1.371771366452e+00
1.371771370646e+00
1.371771366692e+00
1.371771370419e+00
1.371771366905e+00
1.371771370218e+00
1.371771367095e+00
1.371771370039e+00
1.371771367264e+00
1.371771369881e+00
1.371771367413e+00
1.371771369739e+00
1.371771367546e+00
1.371771369614e+00
1.371771367665e+00
1.371771369503e+00
1.371771367770e+00
1.371771369404e+00
1.371771367863e+00
1.371771369316e+00
1.371771367946e+00
1.371771369237e+00
1.371771368020e+00
1.371771369168e+00
1.371771368085e+00
1.371771369106e+00
1.371771368143e+00
1.371771369041e+00
</dep>
<dep tran.v(vout) time>
1.514894557791e+00
1.514906629263e+00
1.514914986971e+00
1.514927471524e+00
1.514937315068e+00
1.514940007194e+00
1.514939500478e+00
1.514939779607e+00
1.514939572114e+00
1.514939752204e+00
1.514939585352e+00
1.514939742644e+00
1.514939594372e+00
1.514939734144e+00
1.514939602386e+00
1.514939726590e+00
1.514939609507e+00
1.514939719878e+00
1.514939615834e+00
1.514939713914e+00
1.514939621457e+00
1.514939708614e+00
1.514939626453e+00
1.514939703905e+00
1.514939630893e+00
1.514939699720e+00
1.514939634837e+00
1.514939696002e+00
1.514939638343e+00
1.514939692697e+00
1.514939641458e+00
1.514939689761e+00
1.514939644226e+00
1.514939687152e+00
1.514939646685e+00
1.514939684834e+00
1.514939648870e+00
1.514939682774e+00
1.514939650812e+00
1.514939680943e+00
1.514939652538e+00
1.514939679317e+00
1.514939654071e+00
1.514939677871e+00
1.514939655434e+00
1.514939676587e+00
1.514939656645e+00
1.514939675446e+00
1.514939657721e+00
1.514939674432e+00
1.514939658677e+00
1.514939673530e+00
1.514939659526e+00
1.514939672730e+00
1.514939660281e+00
1.514939672018e+00
1.514939660952e+00
1.514939671386e+00
1.514939661656e+00
</dep>
