<Qucs Dataset 0.0.24>
<indep time 218>
0.000000000000e+00
1.500000000000e-06
3.000000000000e-06
6.000000000000e-06
1.200000000000e-05
2.400000000000e-05
4.800000000000e-05
9.600000000000e-05
1.920000000000e-04
3.420000000000e-04
4.920000000000e-04
6.420000000000e-04
7.920000000000e-04
9.420000000000e-04
1.092000000000e-03
1.242000000000e-03
1.392000000000e-03
1.542000000000e-03
1.692000000000e-03
1.842000000000e-03
1.992000000000e-03
2.142000000000e-03
2.292000000000e-03
2.442000000000e-03
2.592000000000e-03
2.742000000000e-03
2.892000000000e-03
3.042000000000e-03
3.192000000000e-03
3.342000000000e-03
3.492000000000e-03
3.642000000000e-03
3.792000000000e-03
3.942000000000e-03
4.092000000000e-03
4.242000000000e-03
4.361956061689e-03
4.456934928987e-03
4.538307144053e-03
4.617585955610e-03
4.767585955610e-03
4.917585955610e-03
5.067585955610e-03
5.217585955610e-03
5.367585955610e-03
5.517585955610e-03
5.667585955610e-03
5.817585955610e-03
5.967585955610e-03
6.117585955610e-03
6.267585955610e-03
6.417585955610e-03
6.567585955610e-03
6.717585955610e-03
6.867585955610e-03
7.017585955610e-03
7.167585955610e-03
7.317585955610e-03
7.467585955610e-03
7.617585955610e-03
7.767585955610e-03
7.917585955610e-03
8.067585955610e-03
8.217585955610e-03
8.367585955610e-03
8.517585955610e-03
8.667585955610e-03
8.817585955610e-03
8.967585955610e-03
9.117585955610e-03
9.267585955610e-03
9.345485625615e-03
9.392856323732e-03
9.433881616085e-03
9.473959884589e-03
9.554116421596e-03
9.704116421596e-03
9.854116421596e-03
1.000411642160e-02
1.015411642160e-02
1.030411642160e-02
1.045411642160e-02
1.060411642160e-02
1.075411642160e-02
1.089364042490e-02
1.104364042490e-02
1.119364042490e-02
1.134364042490e-02
1.149364042490e-02
1.164364042490e-02
1.179364042490e-02
1.194364042490e-02
1.209364042490e-02
1.224364042490e-02
1.239364042490e-02
1.254364042490e-02
1.269364042490e-02
1.284364042490e-02
1.299364042490e-02
1.314364042490e-02
1.329364042490e-02
1.344364042490e-02
1.359364042490e-02
1.374364042490e-02
1.389364042490e-02
1.404364042490e-02
1.419364042490e-02
1.434364042490e-02
1.437377675500e-02
1.438949617674e-02
1.440475850528e-02
1.443528316238e-02
1.449633247657e-02
1.461616806718e-02
1.476616806718e-02
1.491616806718e-02
1.506616806718e-02
1.521616806718e-02
1.536616806718e-02
1.551616806718e-02
1.566616806718e-02
1.581616806718e-02
1.596616806718e-02
1.611616806718e-02
1.626616806718e-02
1.641616806718e-02
1.656616806718e-02
1.671616806718e-02
1.686616806718e-02
1.701616806718e-02
1.716616806718e-02
1.731616806718e-02
1.746616806718e-02
1.761616806718e-02
1.776616806718e-02
1.791616806718e-02
1.806616806718e-02
1.821616806718e-02
1.836616806718e-02
1.851616806718e-02
1.866616806718e-02
1.881616806718e-02
1.896616806718e-02
1.911616806718e-02
1.926616806718e-02
1.938063212754e-02
1.947103365090e-02
1.956048712035e-02
1.971048712035e-02
1.986048712035e-02
2.001048712035e-02
2.016048712035e-02
2.031048712035e-02
2.046048712035e-02
2.061048712035e-02
2.076048712035e-02
2.091048712035e-02
2.106048712035e-02
2.121048712035e-02
2.136048712035e-02
2.151048712035e-02
2.166048712035e-02
2.181048712035e-02
2.196048712035e-02
2.211048712035e-02
2.226048712035e-02
2.241048712035e-02
2.256048712035e-02
2.271048712035e-02
2.286048712035e-02
2.301048712035e-02
2.316048712035e-02
2.331048712035e-02
2.346048712035e-02
2.361048712035e-02
2.376048712035e-02
2.391048712035e-02
2.406048712035e-02
2.421048712035e-02
2.436048712035e-02
2.451048712035e-02
2.464465593203e-02
2.477644768186e-02
2.492644768186e-02
2.507644768186e-02
2.522644768186e-02
2.537644768186e-02
2.552644768186e-02
2.567644768186e-02
2.582644768186e-02
2.597644768186e-02
2.612644768186e-02
2.627644768186e-02
2.642644768186e-02
2.657644768186e-02
2.672644768186e-02
2.687644768186e-02
2.702644768186e-02
2.717644768186e-02
2.732644768186e-02
2.747644768186e-02
2.762644768186e-02
2.777644768186e-02
2.792644768186e-02
2.807644768186e-02
2.822644768186e-02
2.837644768186e-02
2.852644768186e-02
2.867644768186e-02
2.882644768186e-02
2.897644768186e-02
2.912644768186e-02
2.927644768186e-02
2.942644768186e-02
2.957330495502e-02
2.971247073604e-02
2.986247073604e-02
3.000000000000e-02
</indep>
<dep tran.v(vin) time>
0.000000000000e+00
7.539821252390e-03
1.507963580742e-02
3.015921803605e-02
6.031800744286e-02
1.206325858883e-01
2.412377409669e-01
4.822560728795e-01
9.627580704777e-01
1.705880108382e+00
2.433860633679e+00
3.140238039689e+00
3.818742470549e+00
4.463351472897e+00
5.068343451594e+00
5.628348455007e+00
6.138395839081e+00
6.593958387127e+00
6.990992493717e+00
7.325974056014e+00
7.595929753955e+00
7.798463441655e+00
7.931777415765e+00
7.994688372010e+00
7.986637908291e+00
7.907697481094e+00
7.758567771238e+00
7.540572464585e+00
7.255646502911e+00
6.906318909222e+00
6.495690339970e+00
6.027405563405e+00
5.505621108356e+00
4.934968370586e+00
4.320512504193e+00
3.667707462947e+00
3.121939033320e+00
2.677079807733e+00
2.288309083170e+00
1.903779876494e+00
1.164092754519e+00
4.140730628444e-01
-3.396219706496e-01
-1.090302495489e+00
-1.831305418192e+00
-2.556053544357e+00
-3.258113958311e+00
-3.931255122115e+00
-4.569502187148e+00
-5.167190027274e+00
-5.719013522913e+00
-6.220074649652e+00
-6.665925953458e+00
-7.052610026594e+00
-7.376694633853e+00
-7.635303177317e+00
-7.826140229247e+00
-7.947511906460e+00
-7.998340905356e+00
-7.978176064143e+00
-7.887196367378e+00
-7.726209357292e+00
-7.496643965983e+00
-7.200537832115e+00
-6.840519214696e+00
-6.419783664460e+00
-5.942065659938e+00
-5.411605459956e+00
-4.833111466804e+00
-4.211718434117e+00
-3.552941890446e+00
-3.197995747680e+00
-2.978353088609e+00
-2.785993092387e+00
-2.596285106153e+00
-2.212051592281e+00
-1.478720635016e+00
-7.322644487100e-01
2.069136868243e-02
7.734635280216e-01
1.519370370330e+00
2.251791173668e+00
2.964224919137e+00
3.650347994374e+00
4.259589823246e+00
4.877958695021e+00
5.453030460088e+00
5.979700740751e+00
6.453294774313e+00
6.869608906605e+00
7.224947903916e+00
7.516157752150e+00
7.740653652078e+00
7.896442962200e+00
7.982142885569e+00
7.996992743600e+00
7.940860727901e+00
7.814245070217e+00
7.618269620089e+00
7.354673869486e+00
7.025797512953e+00
6.634559680311e+00
6.184433026261e+00
5.679412906851e+00
5.123981916411e+00
4.523070099735e+00
3.882011192649e+00
3.206495279393e+00
3.067147212190e+00
2.994022243335e+00
2.922744101355e+00
2.779388071972e+00
2.489662086958e+00
1.910701457044e+00
1.171143519419e+00
4.211904290066e-01
-3.325011774716e-01
-1.083241479960e+00
-1.824366854385e+00
-2.549299019456e+00
-3.251603425956e+00
-3.925046370254e+00
-4.563650325101e+00
-5.161746996583e+00
-5.714027636304e+00
-6.215590162207e+00
-6.661982669805e+00
-7.049242947599e+00
-7.373933645946e+00
-7.633172787223e+00
-7.824659346459e+00
-7.946693675398e+00
-7.998192588698e+00
-7.978698978357e+00
-7.888385871042e+00
-7.728054892286e+00
-7.499129151208e+00
-7.203640608891e+00
-6.844212042556e+00
-6.424033765604e+00
-5.946835310166e+00
-5.416852323516e+00
-4.838788972162e+00
-4.217776187335e+00
-3.559326122477e+00
-3.035293166166e+00
-2.610193425492e+00
-2.181259824491e+00
-1.447238042190e+00
-7.003704725721e-01
5.271363494264e-02
8.053298525018e-01
1.550797905278e+00
2.282500966060e+00
2.993944386680e+00
3.678813344971e+00
4.331028895574e+00
4.944801927091e+00
5.514684546641e+00
6.035618435749e+00
6.502979748338e+00
6.912620152308e+00
7.260903650437e+00
7.544738853736e+00
7.761606420849e+00
7.909581419896e+00
7.987350414311e+00
7.994223120993e+00
7.930138537312e+00
7.795665482568e+00
7.591997549116e+00
7.320942507951e+00
6.984906262809e+00
6.586871495189e+00
6.130371189868e+00
5.619457275873e+00
5.058664661274e+00
4.452970981020e+00
3.807752415095e+00
3.128735969169e+00
2.421948641285e+00
1.771351330302e+00
1.120005143759e+00
3.695826862923e-01
-3.841202132618e-01
-1.134413634610e+00
-1.874637920227e+00
-2.598222786952e+00
-3.298745644282e+00
-3.969988601742e+00
-4.605993659322e+00
-5.201115591106e+00
-5.750072052697e+00
-6.247990467678e+00
-6.690451276949e+00
-7.073527167043e+00
-7.393817929240e+00
-7.648480640061e+00
-7.835254895254e+00
-7.952482873310e+00
-7.999124050396e+00
-7.974764436121e+00
-7.879620248148e+00
-7.714535993023e+00
-7.480976970282e+00
-7.181016266346e+00
-6.817316353659e+00
-6.393105458392e+00
-5.912148906484e+00
-5.378715702339e+00
-4.797540636839e+00
-4.173782261011e+00
-3.512977098355e+00
-2.820990502278e+00
-2.119201447514e+00
-1.437430691734e+00
-6.904374743481e-01
-5.878304635907e-15
</dep>
<dep tran.v(vout) time>
1.654361225106e-24
7.316798480950e-03
1.485001575926e-02
2.992920621063e-02
6.008836368275e-02
1.204025579727e-01
2.410079945048e-01
4.820256487480e-01
9.625266650408e-01
1.705643628615e+00
2.433613072852e+00
3.139956464501e+00
3.561098258479e+00
3.607358696223e+00
3.627431168769e+00
3.639574301396e+00
3.648166309962e+00
3.654403449395e+00
3.659219623727e+00
3.662782345633e+00
3.665469572186e+00
3.667343390683e+00
3.668561998457e+00
3.669111614537e+00
3.669071806668e+00
3.668389242286e+00
3.667083067457e+00
3.665053616357e+00
3.662245157091e+00
3.658465721256e+00
3.653504091869e+00
3.646903627584e+00
3.637854547172e+00
3.624685282739e+00
3.602580410179e+00
3.541167175384e+00
3.116357025413e+00
2.683181385927e+00
2.282723723000e+00
1.909834887471e+00
1.158516219498e+00
4.201048566188e-01
-3.451868484233e-01
-1.084282848102e+00
-1.836847951535e+00
-2.550030340518e+00
-3.263496893613e+00
-3.573214776693e+00
-3.612112525394e+00
-3.629989588172e+00
-3.641912222197e+00
-3.649558967749e+00
-3.655431262356e+00
-3.659849380637e+00
-3.663337606653e+00
-3.665807583803e+00
-3.667628051764e+00
-3.668673896839e+00
-3.669171712121e+00
-3.668978373377e+00
-3.668232854822e+00
-3.666770559823e+00
-3.664651655277e+00
-3.661656714821e+00
-3.657729456859e+00
-3.652491838819e+00
-3.645589025508e+00
-3.636045193172e+00
-3.622100160588e+00
-3.596909422260e+00
-3.508580900744e+00
-3.189563886247e+00
-2.987290784218e+00
-2.777635375905e+00
-2.605111052722e+00
-2.203745191828e+00
-1.487493698784e+00
-7.239672032330e-01
1.194421291766e-02
7.817398075831e-01
1.510639210429e+00
2.260032647997e+00
2.955485600879e+00
3.533990524048e+00
3.596796413132e+00
3.622660245661e+00
3.635969594172e+00
3.646006145041e+00
3.652635004540e+00
3.657916112066e+00
3.661669599425e+00
3.664754560155e+00
3.666765797729e+00
3.668288111911e+00
3.668961314159e+00
3.669189368076e+00
3.668644276033e+00
3.667609251680e+00
3.665760293078e+00
3.663274105732e+00
3.659773693576e+00
3.655283182325e+00
3.649217668912e+00
3.641187101774e+00
3.629691793325e+00
3.611966730393e+00
3.572434370098e+00
3.208998834756e+00
3.065215279918e+00
2.996471167604e+00
2.920868398326e+00
2.781776491254e+00
2.487791607273e+00
1.913056750449e+00
1.169262067060e+00
4.235317287310e-01
-3.343800653703e-01
-1.080903314941e+00
-1.826232684568e+00
-2.546947832748e+00
-3.253342785795e+00
-3.572731121604e+00
-3.611761913170e+00
-3.629928274840e+00
-3.641829196650e+00
-3.649528087674e+00
-3.655353138256e+00
-3.659835437466e+00
-3.663289357994e+00
-3.665804696983e+00
-3.667599098426e+00
-3.668680106215e+00
-3.669157974663e+00
-3.668993762948e+00
-3.668232937816e+00
-3.666796798605e+00
-3.664666516195e+00
-3.661697740533e+00
-3.657763553192e+00
-3.652556847370e+00
-3.645655695926e+00
-3.636161491401e+00
-3.622253035745e+00
-3.597273330854e+00
-3.510854498888e+00
-3.025391519585e+00
-2.620600908256e+00
-2.171372660851e+00
-1.457588990437e+00
-6.904969791760e-01
4.239223954201e-02
8.151783359857e-01
1.540496184911e+00
2.292310092563e+00
2.983637113814e+00
3.540394893662e+00
3.600637330778e+00
3.624512174783e+00
3.638659976962e+00
3.647313714933e+00
3.653164436300e+00
3.658447764979e+00
3.662009713375e+00
3.665068812588e+00
3.666930058764e+00
3.668433566412e+00
3.668985023560e+00
3.669189670802e+00
3.668533069965e+00
3.667462820490e+00
3.665497014544e+00
3.662952354861e+00
3.659306782558e+00
3.654706545474e+00
3.648411552989e+00
3.640121977872e+00
3.628078520885e+00
3.609299486728e+00
3.563584911929e+00
3.128104999987e+00
2.423100786409e+00
1.770685333272e+00
1.121139294400e+00
3.689117576394e-01
-3.829905582786e-01
-1.135079980654e+00
-1.873502231025e+00
-2.598867050773e+00
-3.297331443477e+00
-3.577075198263e+00
-3.613302860111e+00
-3.630785483173e+00
-3.642381688137e+00
-3.649979229257e+00
-3.655698760425e+00
-3.660108083577e+00
-3.663485273786e+00
-3.665953377477e+00
-3.667691799389e+00
-3.668734847506e+00
-3.669164330774e+00
-3.668963456162e+00
-3.668154190167e+00
-3.666676136039e+00
-3.664489149550e+00
-3.661463383572e+00
-3.657449201353e+00
-3.652146896201e+00
-3.645099190892e+00
-3.635382860283e+00
-3.621042291851e+00
-3.594772457550e+00
-3.490377292083e+00
-2.809381276802e+00
-2.131295283211e+00
-1.425829385796e+00
-7.024888168404e-01
1.157529058285e-02
</dep>
