<Qucs Dataset 0.0.24>
<indep time 215>
0.000000000000e+00
1.500000000000e-06
1.738339064805e-06
2.215017194416e-06
3.168373453637e-06
5.075085972078e-06
8.888511008962e-06
1.651536108273e-05
3.176906123026e-05
6.227646152533e-05
1.232912621155e-04
2.453208632957e-04
3.953208632957e-04
5.453208632957e-04
6.953208632957e-04
8.453208632957e-04
9.953208632957e-04
1.103035447377e-03
1.202716712280e-03
1.352716712280e-03
1.502716712280e-03
1.652716712280e-03
1.802716712280e-03
1.952716712280e-03
2.102716712280e-03
2.252716712280e-03
2.402716712280e-03
2.552716712280e-03
2.702716712280e-03
2.852716712280e-03
3.002716712280e-03
3.152716712280e-03
3.302716712280e-03
3.452716712280e-03
3.602716712280e-03
3.752716712280e-03
3.902716712280e-03
4.052716712280e-03
4.202716712280e-03
4.352716712280e-03
4.502716712280e-03
4.652716712280e-03
4.802716712280e-03
4.952716712280e-03
5.102716712280e-03
5.252716712280e-03
5.402716712280e-03
5.512521791687e-03
5.602711711320e-03
5.690578622540e-03
5.788122540004e-03
5.896471298139e-03
5.997347275103e-03
6.075611024467e-03
6.146530562390e-03
6.217427478852e-03
6.328022683913e-03
6.478022683913e-03
6.628022683913e-03
6.778022683913e-03
6.928022683913e-03
7.078022683913e-03
7.228022683913e-03
7.378022683913e-03
7.528022683913e-03
7.678022683913e-03
7.828022683913e-03
7.978022683913e-03
8.128022683913e-03
8.278022683913e-03
8.428022683913e-03
8.578022683913e-03
8.728022683913e-03
8.878022683913e-03
9.028022683913e-03
9.178022683913e-03
9.328022683913e-03
9.478022683913e-03
9.628022683913e-03
9.778022683913e-03
9.928022683913e-03
1.007802268391e-02
1.022802268391e-02
1.037802268391e-02
1.052802268391e-02
1.067802268391e-02
1.082802268391e-02
1.097802268391e-02
1.112802268391e-02
1.127802268391e-02
1.142802268391e-02
1.157802268391e-02
1.172802268391e-02
1.187802268391e-02
1.202802268391e-02
1.217802268391e-02
1.232802268391e-02
1.247802268391e-02
1.262802268391e-02
1.277802268391e-02
1.292802268391e-02
1.307802268391e-02
1.322802268391e-02
1.337802268391e-02
1.352802268391e-02
1.367802268391e-02
1.382802268391e-02
1.397802268391e-02
1.412802268391e-02
1.427802268391e-02
1.442802268391e-02
1.457802268391e-02
1.472802268391e-02
1.487802268391e-02
1.502802268391e-02
1.517802268391e-02
1.532802268391e-02
1.547802268391e-02
1.562802268391e-02
1.577802268391e-02
1.592802268391e-02
1.607802268391e-02
1.622802268391e-02
1.637802268391e-02
1.652802268391e-02
1.667802268391e-02
1.682802268391e-02
1.697802268391e-02
1.712802268391e-02
1.727802268391e-02
1.742802268391e-02
1.757802268391e-02
1.772802268391e-02
1.787802268391e-02
1.802802268391e-02
1.817802268391e-02
1.832802268391e-02
1.847802268391e-02
1.862802268391e-02
1.877802268391e-02
1.892802268391e-02
1.907802268391e-02
1.922802268391e-02
1.937802268391e-02
1.952802268391e-02
1.967802268391e-02
1.982802268391e-02
1.997802268391e-02
2.012802268391e-02
2.027802268391e-02
2.042802268391e-02
2.057802268391e-02
2.072802268391e-02
2.087802268391e-02
2.102802268391e-02
2.117802268391e-02
2.132802268391e-02
2.147802268391e-02
2.162802268391e-02
2.177802268391e-02
2.192802268391e-02
2.207802268391e-02
2.222802268391e-02
2.237802268391e-02
2.252802268391e-02
2.267802268391e-02
2.282802268391e-02
2.297802268391e-02
2.312802268391e-02
2.327802268391e-02
2.342802268391e-02
2.357802268391e-02
2.372802268391e-02
2.387802268391e-02
2.402802268391e-02
2.417802268391e-02
2.432802268391e-02
2.447802268391e-02
2.462802268391e-02
2.477802268391e-02
2.492802268391e-02
2.507802268391e-02
2.522802268391e-02
2.537802268391e-02
2.552802268391e-02
2.567802268391e-02
2.582802268391e-02
2.597802268391e-02
2.612802268391e-02
2.627802268391e-02
2.642802268391e-02
2.657802268391e-02
2.672802268391e-02
2.687802268391e-02
2.702802268391e-02
2.717802268391e-02
2.732802268391e-02
2.747802268391e-02
2.762802268391e-02
2.777802268391e-02
2.792802268391e-02
2.807802268391e-02
2.822802268391e-02
2.837802268391e-02
2.852802268391e-02
2.867802268391e-02
2.882802268391e-02
2.897802268391e-02
2.912802268391e-02
2.927802268391e-02
2.942802268391e-02
2.957802268391e-02
2.972802268391e-02
2.987802268391e-02
3.000000000000e-02
</indep>
<dep tran.v(in1) time>
0.000000000000e+00
4.712388282743e-03
5.461152149610e-03
6.958679499138e-03
9.953732191203e-03
1.594382578603e-02
2.792393572785e-02
5.188360589761e-02
9.979882167229e-02
1.955973514539e-01
3.869436434266e-01
7.676500049317e-01
1.229205966641e+00
1.679851409169e+00
2.115586371667e+00
2.532543239759e+00
2.927021074767e+00
3.194461869211e+00
3.428952144062e+00
3.756194048105e+00
4.050095707863e+00
4.308048431395e+00
4.527762612067e+00
4.707288051257e+00
4.845031268456e+00
4.939769645119e+00
4.990662276706e+00
4.997257436617e+00
4.959496585745e+00
4.877714892077e+00
4.752638255714e+00
4.585376865736e+00
4.377415346082e+00
4.130599577921e+00
3.847120315486e+00
3.529493740778e+00
3.180539129761e+00
2.803353828265e+00
2.401285759730e+00
1.977903708795e+00
1.536965644517e+00
1.082385364371e+00
6.181977551041e-01
1.485229787986e-01
-3.224700979812e-01
-7.906009073424e-01
-1.251714287080e+00
-1.582449777501e+00
-1.848540939690e+00
-2.102078125060e+00
-2.376002966522e+00
-2.669767394491e+00
-2.932180011808e+00
-3.127711157639e+00
-3.298375596293e+00
-3.462440597724e+00
-3.704539756252e+00
-4.004117693291e+00
-4.268154798217e+00
-4.494307458995e+00
-4.680568328598e+00
-4.825284142360e+00
-4.927170392475e+00
-4.985322729373e+00
-4.999224988794e+00
-4.968753773301e+00
-4.894179547559e+00
-4.776164237675e+00
-4.615755355894e+00
-4.414376702808e+00
-4.173815729596e+00
-3.896207672488e+00
-3.584016600252e+00
-3.240013542946e+00
-2.867251896059e+00
-2.469040318359e+00
-2.048913364001e+00
-1.610600109573e+00
-1.157991054552e+00
-6.951035889525e-01
-2.260463346883e-01
2.450173228454e-01
7.139061892758e-01
1.176458373830e+00
1.628568230572e+00
2.066222800407e+00
2.485537430390e+00
2.882790254180e+00
3.254455227589e+00
3.597233426004e+00
3.908082325867e+00
4.184242810338e+00
4.423263659405e+00
4.623023307092e+00
4.781748672624e+00
4.898030898419e+00
4.970837855209e+00
4.999523303291e+00
4.983832628599e+00
4.923905102670e+00
4.820272646467e+00
4.673855109009e+00
4.485952102724e+00
4.258231467996e+00
3.992714469302e+00
3.691757854320e+00
3.358032935268e+00
2.994501878155e+00
2.604391410379e+00
2.191164180070e+00
1.758488021377e+00
1.310203398517e+00
8.502893175373e-01
3.828280083797e-01
-8.803130928219e-02
-5.581092548108e-01
-1.023233383083e+00
-1.479275219408e+00
-1.922186904163e+00
-2.348037121876e+00
-2.753045995870e+00
-3.133618638706e+00
-3.486377060663e+00
-3.808190153016e+00
-4.096201479975e+00
-4.347854632611e+00
-4.560915919727e+00
-4.733494194255e+00
-4.864057639212e+00
-4.951447364218e+00
-4.994887691888e+00
-4.993993042797e+00
-4.948771357914e+00
-4.859624028116e+00
-4.727342331413e+00
-4.553100409510e+00
-4.338444846040e+00
-4.085280938982e+00
-3.795855789096e+00
-3.472738354504e+00
-3.118796648428e+00
-2.737172282509e+00
-2.331252581636e+00
-1.904640517810e+00
-1.461122729910e+00
-1.004635913222e+00
-5.392318770462e-01
-6.904158055516e-02
4.017615338926e-01
8.689985845232e-01
1.328522342198e+00
1.776254041512e+00
2.208219584206e+00
2.620584813542e+00
3.009689546552e+00
3.372080062079e+00
3.704539756253e+00
4.004117693291e+00
4.268154798217e+00
4.494307458995e+00
4.680568328598e+00
4.825284142360e+00
4.927170392475e+00
4.985322729373e+00
4.999224988794e+00
4.968753773301e+00
4.894179547559e+00
4.776164237675e+00
4.615755355894e+00
4.414376702807e+00
4.173815729596e+00
3.896207672488e+00
3.584016600252e+00
3.240013542945e+00
2.867251896059e+00
2.469040318359e+00
2.048913364001e+00
1.610600109573e+00
1.157991054552e+00
6.951035889523e-01
2.260463346880e-01
-2.450173228457e-01
-7.139061892761e-01
-1.176458373830e+00
-1.628568230572e+00
-2.066222800407e+00
-2.485537430390e+00
-2.882790254180e+00
-3.254455227590e+00
-3.597233426004e+00
-3.908082325867e+00
-4.184242810338e+00
-4.423263659405e+00
-4.623023307092e+00
-4.781748672624e+00
-4.898030898419e+00
-4.970837855209e+00
-4.999523303291e+00
-4.983832628599e+00
-4.923905102670e+00
-4.820272646467e+00
-4.673855109009e+00
-4.485952102723e+00
-4.258231467996e+00
-3.992714469302e+00
-3.691757854319e+00
-3.358032935268e+00
-2.994501878155e+00
-2.604391410379e+00
-2.191164180070e+00
-1.758488021377e+00
-1.310203398517e+00
-8.502893175370e-01
-3.828280083794e-01
-3.673940397442e-15
</dep>
<dep tran.v(in2) time>
0.000000000000e+00
4.712388282743e-03
5.461152149610e-03
6.958679499138e-03
9.953732191203e-03
1.594382578603e-02
2.792393572785e-02
5.188360589761e-02
9.979882167229e-02
1.955973514539e-01
3.869436434266e-01
7.676500049317e-01
1.229205966641e+00
1.679851409169e+00
2.115586371667e+00
2.532543239759e+00
2.927021074767e+00
3.194461869211e+00
3.428952144062e+00
3.756194048105e+00
4.050095707863e+00
4.308048431395e+00
4.527762612067e+00
4.707288051257e+00
4.845031268456e+00
4.939769645119e+00
4.990662276706e+00
4.997257436617e+00
4.959496585745e+00
4.877714892077e+00
4.752638255714e+00
4.585376865736e+00
4.377415346082e+00
4.130599577921e+00
3.847120315486e+00
3.529493740778e+00
3.180539129761e+00
2.803353828265e+00
2.401285759730e+00
1.977903708795e+00
1.536965644517e+00
1.082385364371e+00
6.181977551041e-01
1.485229787986e-01
-3.224700979812e-01
-7.906009073424e-01
-1.251714287080e+00
-1.582449777501e+00
-1.848540939690e+00
-2.102078125060e+00
-2.376002966522e+00
-2.669767394491e+00
-2.932180011808e+00
-3.127711157639e+00
-3.298375596293e+00
-3.462440597724e+00
-3.704539756252e+00
-4.004117693291e+00
-4.268154798217e+00
-4.494307458995e+00
-4.680568328598e+00
-4.825284142360e+00
-4.927170392475e+00
-4.985322729373e+00
-4.999224988794e+00
-4.968753773301e+00
-4.894179547559e+00
-4.776164237675e+00
-4.615755355894e+00
-4.414376702808e+00
-4.173815729596e+00
-3.896207672488e+00
-3.584016600252e+00
-3.240013542946e+00
-2.867251896059e+00
-2.469040318359e+00
-2.048913364001e+00
-1.610600109573e+00
-1.157991054552e+00
-6.951035889525e-01
-2.260463346883e-01
2.450173228454e-01
7.139061892758e-01
1.176458373830e+00
1.628568230572e+00
2.066222800407e+00
2.485537430390e+00
2.882790254180e+00
3.254455227589e+00
3.597233426004e+00
3.908082325867e+00
4.184242810338e+00
4.423263659405e+00
4.623023307092e+00
4.781748672624e+00
4.898030898419e+00
4.970837855209e+00
4.999523303291e+00
4.983832628599e+00
4.923905102670e+00
4.820272646467e+00
4.673855109009e+00
4.485952102724e+00
4.258231467996e+00
3.992714469302e+00
3.691757854320e+00
3.358032935268e+00
2.994501878155e+00
2.604391410379e+00
2.191164180070e+00
1.758488021377e+00
1.310203398517e+00
8.502893175373e-01
3.828280083797e-01
-8.803130928219e-02
-5.581092548108e-01
-1.023233383083e+00
-1.479275219408e+00
-1.922186904163e+00
-2.348037121876e+00
-2.753045995870e+00
-3.133618638706e+00
-3.486377060663e+00
-3.808190153016e+00
-4.096201479975e+00
-4.347854632611e+00
-4.560915919727e+00
-4.733494194255e+00
-4.864057639212e+00
-4.951447364218e+00
-4.994887691888e+00
-4.993993042797e+00
-4.948771357914e+00
-4.859624028116e+00
-4.727342331413e+00
-4.553100409510e+00
-4.338444846040e+00
-4.085280938982e+00
-3.795855789096e+00
-3.472738354504e+00
-3.118796648428e+00
-2.737172282509e+00
-2.331252581636e+00
-1.904640517810e+00
-1.461122729910e+00
-1.004635913222e+00
-5.392318770462e-01
-6.904158055516e-02
4.017615338926e-01
8.689985845232e-01
1.328522342198e+00
1.776254041512e+00
2.208219584206e+00
2.620584813542e+00
3.009689546552e+00
3.372080062079e+00
3.704539756253e+00
4.004117693291e+00
4.268154798217e+00
4.494307458995e+00
4.680568328598e+00
4.825284142360e+00
4.927170392475e+00
4.985322729373e+00
4.999224988794e+00
4.968753773301e+00
4.894179547559e+00
4.776164237675e+00
4.615755355894e+00
4.414376702807e+00
4.173815729596e+00
3.896207672488e+00
3.584016600252e+00
3.240013542945e+00
2.867251896059e+00
2.469040318359e+00
2.048913364001e+00
1.610600109573e+00
1.157991054552e+00
6.951035889523e-01
2.260463346880e-01
-2.450173228457e-01
-7.139061892761e-01
-1.176458373830e+00
-1.628568230572e+00
-2.066222800407e+00
-2.485537430390e+00
-2.882790254180e+00
-3.254455227590e+00
-3.597233426004e+00
-3.908082325867e+00
-4.184242810338e+00
-4.423263659405e+00
-4.623023307092e+00
-4.781748672624e+00
-4.898030898419e+00
-4.970837855209e+00
-4.999523303291e+00
-4.983832628599e+00
-4.923905102670e+00
-4.820272646467e+00
-4.673855109009e+00
-4.485952102723e+00
-4.258231467996e+00
-3.992714469302e+00
-3.691757854319e+00
-3.358032935268e+00
-2.994501878155e+00
-2.604391410379e+00
-2.191164180070e+00
-1.758488021377e+00
-1.310203398517e+00
-8.502893175370e-01
-3.828280083794e-01
-3.673940397442e-15
</dep>
<dep tran.v(in3) time>
0.000000000000e+00
4.712388282743e-03
5.461152149610e-03
6.958679499138e-03
9.953732191203e-03
1.594382578603e-02
2.792393572785e-02
5.188360589761e-02
9.979882167229e-02
1.955973514539e-01
3.869436434266e-01
7.676500049317e-01
1.229205966641e+00
1.679851409169e+00
2.115586371667e+00
2.532543239759e+00
2.927021074767e+00
3.194461869211e+00
3.428952144062e+00
3.756194048105e+00
4.050095707863e+00
4.308048431395e+00
4.527762612067e+00
4.707288051257e+00
4.845031268456e+00
4.939769645119e+00
4.990662276706e+00
4.997257436617e+00
4.959496585745e+00
4.877714892077e+00
4.752638255714e+00
4.585376865736e+00
4.377415346082e+00
4.130599577921e+00
3.847120315486e+00
3.529493740778e+00
3.180539129761e+00
2.803353828265e+00
2.401285759730e+00
1.977903708795e+00
1.536965644517e+00
1.082385364371e+00
6.181977551041e-01
1.485229787986e-01
-3.224700979812e-01
-7.906009073424e-01
-1.251714287080e+00
-1.582449777501e+00
-1.848540939690e+00
-2.102078125060e+00
-2.376002966522e+00
-2.669767394491e+00
-2.932180011808e+00
-3.127711157639e+00
-3.298375596293e+00
-3.462440597724e+00
-3.704539756252e+00
-4.004117693291e+00
-4.268154798217e+00
-4.494307458995e+00
-4.680568328598e+00
-4.825284142360e+00
-4.927170392475e+00
-4.985322729373e+00
-4.999224988794e+00
-4.968753773301e+00
-4.894179547559e+00
-4.776164237675e+00
-4.615755355894e+00
-4.414376702808e+00
-4.173815729596e+00
-3.896207672488e+00
-3.584016600252e+00
-3.240013542946e+00
-2.867251896059e+00
-2.469040318359e+00
-2.048913364001e+00
-1.610600109573e+00
-1.157991054552e+00
-6.951035889525e-01
-2.260463346883e-01
2.450173228454e-01
7.139061892758e-01
1.176458373830e+00
1.628568230572e+00
2.066222800407e+00
2.485537430390e+00
2.882790254180e+00
3.254455227589e+00
3.597233426004e+00
3.908082325867e+00
4.184242810338e+00
4.423263659405e+00
4.623023307092e+00
4.781748672624e+00
4.898030898419e+00
4.970837855209e+00
4.999523303291e+00
4.983832628599e+00
4.923905102670e+00
4.820272646467e+00
4.673855109009e+00
4.485952102724e+00
4.258231467996e+00
3.992714469302e+00
3.691757854320e+00
3.358032935268e+00
2.994501878155e+00
2.604391410379e+00
2.191164180070e+00
1.758488021377e+00
1.310203398517e+00
8.502893175373e-01
3.828280083797e-01
-8.803130928219e-02
-5.581092548108e-01
-1.023233383083e+00
-1.479275219408e+00
-1.922186904163e+00
-2.348037121876e+00
-2.753045995870e+00
-3.133618638706e+00
-3.486377060663e+00
-3.808190153016e+00
-4.096201479975e+00
-4.347854632611e+00
-4.560915919727e+00
-4.733494194255e+00
-4.864057639212e+00
-4.951447364218e+00
-4.994887691888e+00
-4.993993042797e+00
-4.948771357914e+00
-4.859624028116e+00
-4.727342331413e+00
-4.553100409510e+00
-4.338444846040e+00
-4.085280938982e+00
-3.795855789096e+00
-3.472738354504e+00
-3.118796648428e+00
-2.737172282509e+00
-2.331252581636e+00
-1.904640517810e+00
-1.461122729910e+00
-1.004635913222e+00
-5.392318770462e-01
-6.904158055516e-02
4.017615338926e-01
8.689985845232e-01
1.328522342198e+00
1.776254041512e+00
2.208219584206e+00
2.620584813542e+00
3.009689546552e+00
3.372080062079e+00
3.704539756253e+00
4.004117693291e+00
4.268154798217e+00
4.494307458995e+00
4.680568328598e+00
4.825284142360e+00
4.927170392475e+00
4.985322729373e+00
4.999224988794e+00
4.968753773301e+00
4.894179547559e+00
4.776164237675e+00
4.615755355894e+00
4.414376702807e+00
4.173815729596e+00
3.896207672488e+00
3.584016600252e+00
3.240013542945e+00
2.867251896059e+00
2.469040318359e+00
2.048913364001e+00
1.610600109573e+00
1.157991054552e+00
6.951035889523e-01
2.260463346880e-01
-2.450173228457e-01
-7.139061892761e-01
-1.176458373830e+00
-1.628568230572e+00
-2.066222800407e+00
-2.485537430390e+00
-2.882790254180e+00
-3.254455227590e+00
-3.597233426004e+00
-3.908082325867e+00
-4.184242810338e+00
-4.423263659405e+00
-4.623023307092e+00
-4.781748672624e+00
-4.898030898419e+00
-4.970837855209e+00
-4.999523303291e+00
-4.983832628599e+00
-4.923905102670e+00
-4.820272646467e+00
-4.673855109009e+00
-4.485952102723e+00
-4.258231467996e+00
-3.992714469302e+00
-3.691757854319e+00
-3.358032935268e+00
-2.994501878155e+00
-2.604391410379e+00
-2.191164180070e+00
-1.758488021377e+00
-1.310203398517e+00
-8.502893175370e-01
-3.828280083794e-01
-3.673940397442e-15
</dep>
<dep tran.v(out1) time>
4.080965683200e-22
4.712355384895e-03
5.461113674858e-03
6.958629159873e-03
9.953653852277e-03
1.594367436508e-02
2.792356981086e-02
5.188253765226e-02
9.979525539045e-02
1.955844158977e-01
3.868944889714e-01
7.674587424245e-01
1.228713908501e+00
1.678921971029e+00
2.114086861071e+00
2.530346044756e+00
2.924004802535e+00
3.190786337113e+00
3.424616658874e+00
3.750781541934e+00
4.043513433519e+00
4.300214061055e+00
4.518604969072e+00
4.696747742790e+00
4.833061213545e+00
4.926335493399e+00
4.975742713936e+00
4.980844374443e+00
4.941595234280e+00
4.858343714328e+00
4.731828804396e+00
4.563173503798e+00
4.353874853805e+00
4.105790649857e+00
3.821122951500e+00
3.502398537002e+00
3.152446475685e+00
2.774373017224e+00
2.371534020848e+00
1.947505169338e+00
1.506050232524e+00
1.051087662793e+00
5.866558214005e-01
1.168771527591e-01
-3.540706127516e-01
-7.129702650595e-01
-7.547016680144e-01
-7.348921867822e-01
-7.448989705270e-01
-7.396145136980e-01
-7.405529892653e-01
-7.379848781351e-01
-7.369405962234e-01
-7.352614995840e-01
-7.339923092632e-01
-7.324002069431e-01
-7.298190249503e-01
-7.255786635845e-01
-7.205278710757e-01
-7.143508757032e-01
-7.067058751957e-01
-6.969940741899e-01
-6.839137878427e-01
-6.654889582353e-01
-6.368411616400e-01
-5.891753094674e-01
-5.102888245250e-01
-3.916754773752e-01
-2.311552558885e-01
-2.973848491360e-02
2.107944035550e-01
4.882966286914e-01
8.002934091153e-01
1.144003796347e+00
1.516365345288e+00
1.914061309788e+00
2.333550070707e+00
2.771096582974e+00
3.222805517610e+00
3.684655847198e+00
4.152536527161e+00
4.622282995108e+00
5.089714126809e+00
5.550669356939e+00
6.001045600105e+00
6.436833678417e+00
6.854153899208e+00
7.249290499367e+00
7.618724619021e+00
7.959165542785e+00
8.267579900946e+00
8.541218601237e+00
8.777641222727e+00
8.974737684368e+00
9.130746967158e+00
9.244272752059e+00
9.314295806798e+00
9.340183039735e+00
9.321693112214e+00
9.258978587667e+00
9.152584570484e+00
9.003443874542e+00
8.812868736601e+00
8.582539175796e+00
8.314488074504e+00
8.011083141483e+00
7.675005888735e+00
7.309227837456e+00
6.916984135235e+00
6.501744848090e+00
6.067184152324e+00
5.617147729956e+00
5.155618626289e+00
4.686681904122e+00
4.214488376180e+00
3.743217770621e+00
3.277041622727e+00
2.820086257007e+00
2.376396152270e+00
1.949898052182e+00
1.544366100997e+00
1.163388354522e+00
8.103349209298e-01
4.883280591830e-01
2.002144526017e-01
-5.146004485156e-02
-2.644731141470e-01
-4.368749654851e-01
-5.650906283187e-01
-6.360996502641e-01
-6.474366028013e-01
-6.199637522522e-01
-5.641789076083e-01
-4.728312159917e-01
-3.402661157267e-01
-1.659515173810e-01
4.872072202617e-02
3.018311070854e-01
5.911213325026e-01
9.140119871339e-01
1.267625414978e+00
1.648811271207e+00
2.054174472851e+00
2.480105345649e+00
2.922811652959e+00
3.378352266490e+00
3.842672138149e+00
4.311638302590e+00
4.781076552546e+00
5.246808498351e+00
5.704688647036e+00
6.150641206441e+00
6.580696254102e+00
6.991024982570e+00
7.377973676395e+00
7.738096150447e+00
8.068184330992e+00
8.365296738211e+00
8.626784587690e+00
8.850315308453e+00
9.033893239892e+00
9.175877352535e+00
9.274995806816e+00
9.330357249017e+00
9.341458716112e+00
