<Qucs Dataset 0.0.24>
<indep time 429>
0.000000000000e+00
1.000000000000e-11
1.821982612717e-11
3.465947838150e-11
6.753878289016e-11
1.017833254405e-10
1.334342238823e-10
1.742214676255e-10
2.473148928881e-10
3.935017434134e-10
6.858754444639e-10
1.000000000000e-09
1.058474740210e-09
1.175424220630e-09
1.409323181471e-09
1.877121103152e-09
2.812716946513e-09
4.683908633237e-09
8.426292006684e-09
1.209565659632e-08
1.767171559082e-08
2.379201196689e-08
3.336868146169e-08
4.348776588838e-08
6.372593474176e-08
1.042022724485e-07
1.784653989000e-07
3.269916518030e-07
6.240441576091e-07
1.218149169221e-06
2.406359192445e-06
4.782779238893e-06
7.282779238893e-06
9.782779238893e-06
1.228277923889e-05
1.478277923889e-05
1.728277923889e-05
1.978277923889e-05
2.228277923889e-05
2.478277923889e-05
2.728277923889e-05
2.978277923889e-05
3.228277923889e-05
3.478277923889e-05
3.728277923889e-05
3.978277923889e-05
4.228277923889e-05
4.478277923889e-05
4.728277923889e-05
4.978277923889e-05
5.000100000000e-05
5.000110000000e-05
5.000130000000e-05
5.000138126606e-05
5.000143362995e-05
5.000148176956e-05
5.000157804878e-05
5.000177060723e-05
5.000200000000e-05
5.000203851169e-05
5.000211553507e-05
5.000226958183e-05
5.000252953451e-05
5.000304943988e-05
5.000408925061e-05
5.000616887207e-05
5.001032811499e-05
5.001864660084e-05
5.003528357253e-05
5.006855751591e-05
5.013510540268e-05
5.026820117621e-05
5.053439272328e-05
5.106677581742e-05
5.213154200569e-05
5.426107438222e-05
5.676107438222e-05
5.926107438222e-05
6.176107438222e-05
6.426107438222e-05
6.676107438222e-05
6.926107438222e-05
7.176107438222e-05
7.426107438222e-05
7.676107438222e-05
7.926107438222e-05
8.176107438222e-05
8.426107438222e-05
8.676107438222e-05
8.926107438222e-05
9.176107438222e-05
9.426107438222e-05
9.676107438222e-05
9.926107438222e-05
1.000020000000e-04
1.000021000000e-04
1.000023000000e-04
1.000027000000e-04
1.000030000000e-04
1.000030423008e-04
1.000031269025e-04
1.000032961057e-04
1.000036345123e-04
1.000042062227e-04
1.000051160819e-04
1.000064856038e-04
1.000084934715e-04
1.000113827853e-04
1.000156146763e-04
1.000222053119e-04
1.000342532534e-04
1.000583491362e-04
1.001065409020e-04
1.002029244334e-04
1.003956914963e-04
1.007812256221e-04
1.015522938736e-04
1.030944303768e-04
1.055944303768e-04
1.080944303768e-04
1.105944303768e-04
1.130944303768e-04
1.155944303768e-04
1.180944303768e-04
1.205944303768e-04
1.230944303768e-04
1.255944303768e-04
1.280944303768e-04
1.305944303768e-04
1.330944303768e-04
1.355944303768e-04
1.380944303768e-04
1.405944303768e-04
1.430944303768e-04
1.455944303768e-04
1.480944303768e-04
1.500030000000e-04
1.500031000000e-04
1.500033000000e-04
1.500034044957e-04
1.500035055011e-04
1.500037075118e-04
1.500040000000e-04
1.500040404021e-04
1.500041212064e-04
1.500042828150e-04
1.500044297406e-04
1.500047235919e-04
1.500053112945e-04
1.500064866995e-04
1.500088375097e-04
1.500135391301e-04
1.500229423709e-04
1.500417488525e-04
1.500793618156e-04
1.501545877419e-04
1.503050395944e-04
1.506059432994e-04
1.512077507094e-04
1.524113655294e-04
1.548185951694e-04
1.573185951694e-04
1.598185951694e-04
1.623185951694e-04
1.648185951694e-04
1.673185951694e-04
1.698185951694e-04
1.723185951694e-04
1.748185951694e-04
1.773185951694e-04
1.798185951694e-04
1.823185951694e-04
1.848185951694e-04
1.873185951694e-04
1.898185951694e-04
1.923185951694e-04
1.948185951694e-04
1.973185951694e-04
1.998185951694e-04
2.000040000000e-04
2.000041000000e-04
2.000043000000e-04
2.000047000000e-04
2.000050000000e-04
2.000050582096e-04
2.000051746287e-04
2.000054074671e-04
2.000058236412e-04
2.000062535722e-04
2.000070461926e-04
2.000080480298e-04
2.000098603465e-04
2.000123595409e-04
2.000173579298e-04
2.000273547075e-04
2.000473482629e-04
2.000873353738e-04
2.001673095954e-04
2.003272580388e-04
2.006471549255e-04
2.012869486990e-04
2.025665362459e-04
2.050665362459e-04
2.075665362459e-04
2.100665362459e-04
2.125665362459e-04
2.150665362459e-04
2.175665362459e-04
2.200665362459e-04
2.225665362459e-04
2.250665362459e-04
2.275665362459e-04
2.300665362459e-04
2.325665362459e-04
2.350665362459e-04
2.375665362459e-04
2.400665362459e-04
2.425665362459e-04
2.450665362459e-04
2.475665362459e-04
2.500050000000e-04
2.500051000000e-04
2.500053000000e-04
2.500054047016e-04
2.500055059171e-04
2.500057083480e-04
2.500060000000e-04
2.500060404862e-04
2.500061214586e-04
2.500062834034e-04
2.500064840195e-04
2.500068852517e-04
2.500076877160e-04
2.500092926448e-04
2.500125025024e-04
2.500189222175e-04
2.500317616478e-04
2.500574405083e-04
2.501087982294e-04
2.502115136715e-04
2.504169445557e-04
2.508278063242e-04
2.516495298611e-04
2.532929769349e-04
2.557929769349e-04
2.582929769349e-04
2.607929769349e-04
2.632929769349e-04
2.657929769349e-04
2.682929769349e-04
2.707929769349e-04
2.732929769349e-04
2.757929769349e-04
2.782929769349e-04
2.807929769349e-04
2.832929769349e-04
2.857929769349e-04
2.882929769349e-04
2.907929769349e-04
2.932929769349e-04
2.957929769349e-04
2.982929769349e-04
3.000060000000e-04
3.000061000000e-04
3.000063000000e-04
3.000067000000e-04
3.000070000000e-04
3.000070800000e-04
3.000072400000e-04
3.000075039091e-04
3.000078736966e-04
3.000082883232e-04
3.000090275972e-04
3.000100878924e-04
3.000121705240e-04
3.000161776972e-04
3.000241920435e-04
3.000402207360e-04
3.000722781212e-04
3.001363928915e-04
3.002646224320e-04
3.005210815131e-04
3.010339996754e-04
3.020598359999e-04
3.041115086489e-04
3.066115086489e-04
3.091115086489e-04
3.116115086489e-04
3.141115086489e-04
3.166115086489e-04
3.191115086489e-04
3.216115086489e-04
3.241115086489e-04
3.266115086489e-04
3.291115086489e-04
3.316115086489e-04
3.341115086489e-04
3.366115086489e-04
3.391115086489e-04
3.416115086489e-04
3.441115086489e-04
3.466115086489e-04
3.491115086489e-04
3.500070000000e-04
3.500071000000e-04
3.500073000000e-04
3.500074049050e-04
3.500075063285e-04
3.500077091755e-04
3.500080000000e-04
3.500080405694e-04
3.500081217082e-04
3.500082839858e-04
3.500085271440e-04
3.500090134603e-04
3.500099860930e-04
3.500119313583e-04
3.500158218890e-04
3.500236029503e-04
3.500391650730e-04
3.500702893183e-04
3.501325378090e-04
3.502570347904e-04
3.505060287531e-04
3.510040166785e-04
3.519999925293e-04
3.539919442310e-04
3.564919442310e-04
3.589919442310e-04
3.614919442310e-04
3.639919442310e-04
3.664919442310e-04
3.689919442310e-04
3.714919442310e-04
3.739919442310e-04
3.764919442310e-04
3.789919442310e-04
3.814919442310e-04
3.839919442310e-04
3.864919442310e-04
3.889919442310e-04
3.914919442310e-04
3.939919442310e-04
3.964919442310e-04
3.989919442310e-04
4.000080000000e-04
4.000081000000e-04
4.000083000000e-04
4.000087000000e-04
4.000090000000e-04
4.000090800000e-04
4.000092400000e-04
4.000095037188e-04
4.000098253339e-04
4.000102038370e-04
4.000108819772e-04
4.000120200891e-04
4.000142963129e-04
4.000188487603e-04
4.000279536553e-04
4.000461634452e-04
4.000825830251e-04
4.001554221849e-04
4.003011005043e-04
4.005924571433e-04
4.011751704213e-04
4.023405969771e-04
4.046714500889e-04
4.071714500889e-04
4.096714500889e-04
4.121714500889e-04
4.146714500889e-04
4.171714500889e-04
4.196714500889e-04
4.221714500889e-04
4.246714500889e-04
4.271714500889e-04
4.296714500889e-04
4.321714500889e-04
4.346714500889e-04
4.371714500889e-04
4.396714500889e-04
4.421714500889e-04
4.446714500889e-04
4.471714500889e-04
4.496714500889e-04
4.500090000000e-04
4.500091000000e-04
4.500093000000e-04
4.500094051029e-04
4.500095067287e-04
4.500097099804e-04
4.500100000000e-04
4.500100406503e-04
4.500101219510e-04
4.500102845524e-04
4.500105635304e-04
4.500111214866e-04
4.500122373989e-04
4.500144692235e-04
4.500189328728e-04
4.500278601713e-04
4.500457147683e-04
4.500814239622e-04
4.501528423502e-04
4.502956791261e-04
4.505813526779e-04
4.511526997815e-04
4.522953939887e-04
4.545807824032e-04
4.570807824032e-04
4.595807824032e-04
4.620807824032e-04
4.645807824032e-04
4.670807824032e-04
4.695807824032e-04
4.720807824032e-04
4.745807824032e-04
4.770807824032e-04
4.795807824032e-04
4.820807824032e-04
4.845807824032e-04
4.870807824032e-04
4.895807824032e-04
4.920807824032e-04
4.945807824032e-04
4.970807824032e-04
4.995807824032e-04
5.000000000000e-04
</indep>
<dep tran.v(va) time>
6.000000000012e+00
6.079999996834e+00
6.145758603065e+00
6.277275815160e+00
6.540310233678e+00
6.814266316767e+00
7.067472615371e+00
7.393768037481e+00
7.978506599552e+00
9.147966197048e+00
1.148681311049e+01
1.399954751252e+01
1.399948824503e+01
1.399936977322e+01
1.399913315171e+01
1.399866085982e+01
1.399771885026e+01
1.399584125173e+01
1.399209874101e+01
1.398843690049e+01
1.398287846403e+01
1.397678251229e+01
1.396725233757e+01
1.395719549946e+01
1.393712518649e+01
1.389716031288e+01
1.382444169728e+01
1.368132610281e+01
1.340413572269e+01
1.288404183395e+01
1.196733681500e+01
1.053669149498e+01
9.479476697133e+00
8.743413758051e+00
8.229533020362e+00
7.869401077117e+00
7.615682645033e+00
7.435681415794e+00
7.306779324005e+00
7.213401817277e+00
7.144761673169e+00
7.093483789486e+00
7.054427702193e+00
7.024119064068e+00
7.000089818388e+00
6.980692521411e+00
6.964711831694e+00
6.951337794148e+00
6.939951484787e+00
6.930143205243e+00
6.929351734882e+00
6.129362549744e+00
4.529371980854e+00
3.879243494861e+00
3.460332432459e+00
3.075215537846e+00
2.304981761046e+00
7.645141932811e-01
-1.070627882751e+00
-1.070627883016e+00
-1.070627880304e+00
-1.070627874847e+00
-1.070627865667e+00
-1.070627847277e+00
-1.070627810526e+00
-1.070627736995e+00
-1.070627589963e+00
-1.070627295868e+00
-1.070626707709e+00
-1.070625531361e+00
-1.070623178695e+00
-1.070618473336e+00
-1.070609062658e+00
-1.070590241308e+00
-1.070552598790e+00
-1.070477314323e+00
-1.070388933916e+00
-1.070300554592e+00
-1.070212176393e+00
-1.070123799279e+00
-1.070035423290e+00
-1.069947048385e+00
-1.069858674606e+00
-1.069770301910e+00
-1.069681930340e+00
-1.069593559854e+00
-1.069505190492e+00
-1.069416822215e+00
-1.069328455064e+00
-1.069240088996e+00
-1.069151724053e+00
-1.069063360194e+00
-1.068974997461e+00
-1.068886635811e+00
-1.068860448273e+00
-2.688604597827e-01
1.331139514648e+00
4.531139446687e+00
6.931136843246e+00
6.931136178671e+00
6.931134935136e+00
6.931132818030e+00
6.931129392876e+00
6.931124869149e+00
6.931119240881e+00
6.931112430601e+00
6.931103937841e+00
6.931092790627e+00
6.931077023916e+00
6.931052639398e+00
6.931008088909e+00
6.930919069591e+00
6.930741377702e+00
6.930387382321e+00
6.929684879817e+00
6.928301377845e+00
6.925616900684e+00
6.920552626981e+00
6.913100589695e+00
6.906450226596e+00
6.900464859605e+00
6.895037445553e+00
6.890083119646e+00
6.885533727327e+00
6.881333956733e+00
6.877438427103e+00
6.873809575469e+00
6.870416011793e+00
6.867231310544e+00
6.864233037788e+00
6.861402031397e+00
6.858721801224e+00
6.856178084597e+00
6.853758462505e+00
6.851452076228e+00
6.849249373453e+00
6.847632493378e+00
6.047637297270e+00
4.447637373287e+00
3.611671674496e+00
2.803628883389e+00
1.187543254408e+00
-1.152362481777e+00
-1.152362486128e+00
-1.152362483273e+00
-1.152362477459e+00
-1.152362472239e+00
-1.152362461697e+00
-1.152362440713e+00
-1.152362398645e+00
-1.152362314609e+00
-1.152362146437e+00
-1.152361810194e+00
-1.152361137606e+00
-1.152359792532e+00
-1.152357102284e+00
-1.152351721893e+00
-1.152340961021e+00
-1.152319439427e+00
-1.152276396333e+00
-1.152190311022e+00
-1.152100909164e+00
-1.152011508491e+00
-1.151922108868e+00
-1.151832710430e+00
-1.151743313042e+00
-1.151653916839e+00
-1.151564521686e+00
-1.151475127717e+00
-1.151385734799e+00
-1.151296343066e+00
-1.151206952382e+00
-1.151117562884e+00
-1.151028174435e+00
-1.150938787171e+00
-1.150849400957e+00
-1.150760015928e+00
-1.150670631948e+00
-1.150581249154e+00
-1.150574620361e+00
-3.505746316901e-01
1.249425342851e+00
4.449425275627e+00
6.849423861184e+00
6.849423425733e+00
6.849422679721e+00
6.849421666438e+00
6.849420555989e+00
6.849419832678e+00
6.849418882235e+00
6.849417937623e+00
6.849416354268e+00
6.849414197103e+00
6.849409877256e+00
6.849401240616e+00
6.849383970262e+00
6.849349449237e+00
6.849280479143e+00
6.849142831942e+00
6.848868695974e+00
6.848325002532e+00
6.847255455611e+00
6.845231123966e+00
6.843288249003e+00
6.841420831536e+00
6.839623498787e+00
6.837891407281e+00
6.836220190767e+00
6.834605887852e+00
6.833044906751e+00
6.831533970273e+00
6.830070091552e+00
6.828650531441e+00
6.827272781772e+00
6.825934531796e+00
6.824633656655e+00
6.823368190556e+00
6.822136318887e+00
6.820936356483e+00
6.819766742314e+00
6.818653769206e+00
6.018656379002e+00
4.418656444270e+00
3.581043936430e+00
2.771320084984e+00
1.151872355965e+00
-1.181343418692e+00
-1.181343420291e+00
-1.181343417402e+00
-1.181343411569e+00
-1.181343404383e+00
-1.181343389958e+00
-1.181343361163e+00
-1.181343303517e+00
-1.181343188279e+00
-1.181342957750e+00
-1.181342496747e+00
-1.181341574685e+00
-1.181339730617e+00
-1.181336042427e+00
-1.181328666107e+00
-1.181313913437e+00
-1.181284408241e+00
-1.181225398158e+00
-1.181135633416e+00
-1.181045869759e+00
-1.180956107261e+00
-1.180866345848e+00
-1.180776585594e+00
-1.180686826425e+00
-1.180597068415e+00
-1.180507311490e+00
-1.180417555724e+00
-1.180327801043e+00
-1.180238047521e+00
-1.180148295084e+00
-1.180058543805e+00
-1.179968793612e+00
-1.179879044577e+00
-1.179789296627e+00
-1.179699549836e+00
-1.179609804130e+00
-1.179548310223e+00
-3.795483217098e-01
1.220451653125e+00
4.420451586375e+00
6.820450520609e+00
6.820450131357e+00
6.820449528045e+00
6.820448993543e+00
6.820448597717e+00
6.820448323039e+00
6.820447941893e+00
6.820447443317e+00
6.820446467297e+00
6.820444588751e+00
6.820440832253e+00
6.820433319884e+00
6.820418299061e+00
6.820388271812e+00
6.820328275984e+00
6.820208517142e+00
6.819969925998e+00
6.819496403052e+00
6.818563639990e+00
6.817451948758e+00
6.816366468372e+00
6.815306024280e+00
6.814269516832e+00
6.813255916632e+00
6.812264257322e+00
6.811293631970e+00
6.810343187074e+00
6.809412119725e+00
6.808499672583e+00
6.807605131635e+00
6.806727821953e+00
6.805867105921e+00
6.805022379624e+00
6.804193071442e+00
6.803378638964e+00
6.802578567861e+00
6.801792369240e+00
6.801514051934e+00
6.001515851672e+00
4.401515912322e+00
3.562275824735e+00
2.750887774583e+00
1.128111656135e+00
-1.198483952312e+00
-1.198483952942e+00
-1.198483950035e+00
-1.198483944181e+00
-1.198483935442e+00
-1.198483917926e+00
-1.198483882931e+00
-1.198483812903e+00
-1.198483672886e+00
-1.198483392815e+00
-1.198482832709e+00
-1.198481712460e+00
-1.198479471999e+00
-1.198474991043e+00
-1.198466029177e+00
-1.198448105440e+00
-1.198412258137e+00
-1.198340564031e+00
-1.198250585345e+00
-1.198160607758e+00
-1.198070631321e+00
-1.197980655984e+00
-1.197890681797e+00
-1.197800708709e+00
-1.197710736771e+00
-1.197620765932e+00
-1.197530796243e+00
-1.197440827654e+00
-1.197350860214e+00
-1.197260893874e+00
-1.197170928684e+00
-1.197080964593e+00
-1.196991001651e+00
-1.196901039809e+00
-1.196811079117e+00
-1.196721119524e+00
-1.196684558278e+00
-3.966845697477e-01
1.203315405132e+00
4.403315338533e+00
6.803314454720e+00
6.803314154747e+00
6.803313715421e+00
6.803313387476e+00
6.803313198625e+00
6.803313052547e+00
6.803312827710e+00
6.803312461548e+00
6.803311727538e+00
6.803310260178e+00
6.803307325007e+00
6.803301455735e+00
6.803289719003e+00
6.803266255087e+00
6.803219363184e+00
6.803125724898e+00
6.802939025359e+00
6.802567913297e+00
6.801834655719e+00
6.801061149492e+00
6.800300633000e+00
6.799552683906e+00
6.798816900695e+00
6.798092899713e+00
6.797380315686e+00
6.796678799106e+00
6.795988016746e+00
6.795307649349e+00
6.794637392129e+00
6.793976952718e+00
6.793326051654e+00
6.792684420551e+00
6.792051802562e+00
6.791427950756e+00
6.790812628548e+00
6.790205608251e+00
6.789606671484e+00
6.789526412995e+00
5.989527797476e+00
4.389527856082e+00
3.548704728083e+00
2.735697979974e+00
1.109684469470e+00
-1.210472009072e+00
-1.210472009203e+00
-1.210472006281e+00
-1.210472000410e+00
-1.210471990361e+00
-1.210471970236e+00
-1.210471930015e+00
-1.210471849542e+00
-1.210471688627e+00
-1.210471366767e+00
-1.210470723076e+00
-1.210469435666e+00
-1.210466860876e+00
-1.210461711269e+00
-1.210451412094e+00
-1.210430813760e+00
-1.210389617298e+00
-1.210307225051e+00
-1.210217096779e+00
-1.210126969615e+00
-1.210036843597e+00
-1.209946718686e+00
-1.209856594921e+00
-1.209766472263e+00
-1.209676350751e+00
-1.209586230346e+00
-1.209496111087e+00
-1.209405992935e+00
-1.209315875929e+00
-1.209225760030e+00
-1.209135645276e+00
-1.209045531630e+00
-1.208955419130e+00
-1.208865307737e+00
-1.208775197489e+00
-1.208685088348e+00
-1.208669978335e+00
</dep>
<dep tran.v(vin) time>
-4.000000000000e+00
-3.920000000000e+00
-3.854241390983e+00
-3.722724172948e+00
-3.459689736879e+00
-3.185733396476e+00
-2.932526208942e+00
-2.606228258996e+00
-2.021480856895e+00
-8.519860526931e-01
1.487003555711e+00
4.000000000000e+00
4.000000000000e+00
4.000000000000e+00
4.000000000000e+00
4.000000000000e+00
4.000000000000e+00
4.000000000000e+00
4.000000000000e+00
4.000000000000e+00
4.000000000000e+00
4.000000000000e+00
4.000000000000e+00
4.000000000000e+00
4.000000000000e+00
4.000000000000e+00
4.000000000000e+00
4.000000000000e+00
4.000000000000e+00
4.000000000000e+00
4.000000000000e+00
4.000000000000e+00
4.000000000000e+00
4.000000000000e+00
4.000000000000e+00
4.000000000000e+00
4.000000000000e+00
4.000000000000e+00
4.000000000000e+00
4.000000000000e+00
4.000000000000e+00
4.000000000000e+00
4.000000000000e+00
4.000000000000e+00
4.000000000000e+00
4.000000000000e+00
4.000000000000e+00
4.000000000000e+00
4.000000000000e+00
4.000000000000e+00
4.000000000000e+00
3.199999999998e+00
1.599999999995e+00
9.498715007821e-01
5.309604224302e-01
1.458435222546e-01
-6.243902780967e-01
-2.164857878799e+00
-4.000000000000e+00
-4.000000000000e+00
-4.000000000000e+00
-4.000000000000e+00
-4.000000000000e+00
-4.000000000000e+00
-4.000000000000e+00
-4.000000000000e+00
-4.000000000000e+00
-4.000000000000e+00
-4.000000000000e+00
-4.000000000000e+00
-4.000000000000e+00
-4.000000000000e+00
-4.000000000000e+00
-4.000000000000e+00
-4.000000000000e+00
-4.000000000000e+00
-4.000000000000e+00
-4.000000000000e+00
-4.000000000000e+00
-4.000000000000e+00
-4.000000000000e+00
-4.000000000000e+00
-4.000000000000e+00
-4.000000000000e+00
-4.000000000000e+00
-4.000000000000e+00
-4.000000000000e+00
-4.000000000000e+00
-4.000000000000e+00
-4.000000000000e+00
-4.000000000000e+00
-4.000000000000e+00
-4.000000000000e+00
-4.000000000000e+00
-4.000000000000e+00
-3.200000000052e+00
-1.600000000049e+00
1.599999999958e+00
4.000000000000e+00
4.000000000000e+00
4.000000000000e+00
4.000000000000e+00
4.000000000000e+00
4.000000000000e+00
4.000000000000e+00
4.000000000000e+00
4.000000000000e+00
4.000000000000e+00
4.000000000000e+00
4.000000000000e+00
4.000000000000e+00
4.000000000000e+00
4.000000000000e+00
4.000000000000e+00
4.000000000000e+00
4.000000000000e+00
4.000000000000e+00
4.000000000000e+00
4.000000000000e+00
4.000000000000e+00
4.000000000000e+00
4.000000000000e+00
4.000000000000e+00
4.000000000000e+00
4.000000000000e+00
4.000000000000e+00
4.000000000000e+00
4.000000000000e+00
4.000000000000e+00
4.000000000000e+00
4.000000000000e+00
4.000000000000e+00
4.000000000000e+00
4.000000000000e+00
4.000000000000e+00
4.000000000000e+00
4.000000000000e+00
3.199999999998e+00
1.600000000103e+00
7.640342943731e-01
-4.400853532298e-02
-1.660094194715e+00
-3.999999999855e+00
-4.000000000000e+00
-4.000000000000e+00
-4.000000000000e+00
-4.000000000000e+00
-4.000000000000e+00
-4.000000000000e+00
-4.000000000000e+00
-4.000000000000e+00
-4.000000000000e+00
-4.000000000000e+00
-4.000000000000e+00
-4.000000000000e+00
-4.000000000000e+00
-4.000000000000e+00
-4.000000000000e+00
-4.000000000000e+00
-4.000000000000e+00
-4.000000000000e+00
-4.000000000000e+00
-4.000000000000e+00
-4.000000000000e+00
-4.000000000000e+00
-4.000000000000e+00
-4.000000000000e+00
-4.000000000000e+00
-4.000000000000e+00
-4.000000000000e+00
-4.000000000000e+00
-4.000000000000e+00
-4.000000000000e+00
-4.000000000000e+00
