<Qucs Dataset 0.0.24>
<indep time 231>
0.000000000000e+00
2.500000000000e-06
3.612660742608e-06
5.837982227823e-06
1.028862519825e-05
1.709584173614e-05
2.443473139556e-05
3.386236836017e-05
4.637774152147e-05
6.545569566824e-05
1.006027732418e-04
1.708969283888e-04
3.114852386829e-04
5.614852386829e-04
8.114852386829e-04
1.046898622569e-03
1.293949577262e-03
1.543949577262e-03
1.793949577262e-03
2.043949577262e-03
2.293949577262e-03
2.543949577262e-03
2.793949577262e-03
3.043949577262e-03
3.293949577262e-03
3.543949577262e-03
3.793949577262e-03
4.043949577262e-03
4.232161651029e-03
4.439145374472e-03
4.588761409251e-03
4.733428186186e-03
4.983428186186e-03
5.233428186186e-03
5.466541287997e-03
5.716541287997e-03
5.966541287997e-03
6.216541287997e-03
6.466541287997e-03
6.716541287997e-03
6.966541287997e-03
7.216541287997e-03
7.466541287997e-03
7.716541287997e-03
7.966541287997e-03
8.216541287997e-03
8.466541287997e-03
8.716541287997e-03
8.966541287997e-03
9.216541287997e-03
9.250028790450e-03
9.274123594118e-03
9.291314904893e-03
9.307810457109e-03
9.340801561540e-03
9.406783770404e-03
9.538748188130e-03
9.788748188130e-03
1.003874818813e-02
1.028874818813e-02
1.053874818813e-02
1.078874818813e-02
1.096654076861e-02
1.112870450617e-02
1.137870450617e-02
1.162870450617e-02
1.187870450617e-02
1.212870450617e-02
1.237870450617e-02
1.262870450617e-02
1.287870450617e-02
1.312870450617e-02
1.337870450617e-02
1.362870450617e-02
1.387870450617e-02
1.412870450617e-02
1.429420108596e-02
1.441420929488e-02
1.449522753087e-02
1.457154903994e-02
1.472419205807e-02
1.497419205807e-02
1.522419205807e-02
1.547419205807e-02
1.572419205807e-02
1.597419205807e-02
1.616721501437e-02
1.634895860885e-02
1.659895860885e-02
1.684895860885e-02
1.709895860885e-02
1.734895860885e-02
1.759895860885e-02
1.784895860885e-02
1.809895860885e-02
1.834895860885e-02
1.859895860885e-02
1.884895860885e-02
1.909895860885e-02
1.928892081611e-02
1.947590046517e-02
1.952183416737e-02
1.956727578025e-02
1.965815900601e-02
1.983992545752e-02
2.008992545752e-02
2.033992545752e-02
2.058992545752e-02
2.083992545752e-02
2.108992545752e-02
2.133661812876e-02
2.158661812876e-02
2.183661812876e-02
2.208661812876e-02
2.233661812876e-02
2.258661812876e-02
2.283661812876e-02
2.308661812876e-02
2.333661812876e-02
2.358661812876e-02
2.383661812876e-02
2.408661812876e-02
2.424331593379e-02
2.440242728573e-02
2.451218594303e-02
2.461423562916e-02
2.481833500144e-02
2.506833500144e-02
2.531833500144e-02
2.556833500144e-02
2.581833500144e-02
2.606833500144e-02
2.631805973489e-02
2.656805973489e-02
2.681805973489e-02
2.706805973489e-02
2.731805973489e-02
2.756805973489e-02
2.781805973489e-02
2.806805973489e-02
2.831805973489e-02
2.856805973489e-02
2.881805973489e-02
2.906805973489e-02
2.922024927981e-02
2.940809716703e-02
2.955220128874e-02
2.969161643769e-02
2.994161643769e-02
3.019161643769e-02
3.044161643769e-02
3.069161643769e-02
3.088769168995e-02
3.110455737692e-02
3.135455737692e-02
3.158697084945e-02
3.183697084945e-02
3.208697084945e-02
3.233697084945e-02
3.258697084945e-02
3.283697084945e-02
3.308697084945e-02
3.333697084945e-02
3.358697084945e-02
3.383697084945e-02
3.408697084945e-02
3.427098950892e-02
3.448064667976e-02
3.469670728062e-02
3.490699705447e-02
3.515699705447e-02
3.540699705447e-02
3.565699705447e-02
3.590699705447e-02
3.615699705447e-02
3.640699705447e-02
3.665699705447e-02
3.690699705447e-02
3.715699705447e-02
3.740699705447e-02
3.765699705447e-02
3.790699705447e-02
3.815699705447e-02
3.840699705447e-02
3.865699705447e-02
3.890699705447e-02
3.915699705447e-02
3.940699705447e-02
3.965699705447e-02
3.990699705447e-02
4.015699705447e-02
4.040699705447e-02
4.065699705447e-02
4.090699705447e-02
4.115699705447e-02
4.140699705447e-02
4.165699705447e-02
4.190699705447e-02
4.215699705447e-02
4.240699705447e-02
4.265699705447e-02
4.290699705447e-02
4.315699705447e-02
4.340699705447e-02
4.365699705447e-02
4.390699705447e-02
4.415699705447e-02
4.440699705447e-02
4.465699705447e-02
4.490699705447e-02
4.515699705447e-02
4.540699705447e-02
4.565699705447e-02
4.590699705447e-02
4.615699705447e-02
4.640699705447e-02
4.665699705447e-02
4.690699705447e-02
4.715699705447e-02
4.740699705447e-02
4.765699705447e-02
4.790699705447e-02
4.815699705447e-02
4.840699705447e-02
4.865699705447e-02
4.890699705447e-02
4.915699705447e-02
4.940699705447e-02
4.965699705447e-02
4.990699705447e-02
5.000000000000e-02
</indep>
<dep tran.v(out_sujetador) time>
2.802834992989e-01
2.948594697948e-01
3.018132508746e-01
3.157791951597e-01
3.434895833649e-01
3.861202149885e-01
4.319423770379e-01
4.910015052992e-01
5.692057456101e-01
6.885839452823e-01
9.081027237539e-01
1.346306874147e+00
2.215187693283e+00
3.718312896407e+00
5.116604079063e+00
5.265941816467e+00
5.291490921045e+00
5.302492163649e+00
5.308789114760e+00
5.311101054834e+00
5.311134844408e+00
5.309053159208e+00
5.305165050996e+00
5.299000711040e+00
5.290364019444e+00
5.277809126479e+00
5.258222170098e+00
5.217144792738e+00
4.877507699734e+00
3.657049825506e+00
2.798912808776e+00
1.878173144246e+00
3.565202684193e-01
2.014976601417e-02
-6.798003344157e-03
-2.135585123838e-02
-2.992466478213e-02
-3.524834057744e-02
-3.428063373541e-02
-2.544786295889e-02
-1.664593174448e-02
-7.327602555059e-03
1.412258858825e-03
1.081178899443e-02
1.943273661609e-02
2.907051352184e-02
3.782612602841e-02
4.855166986310e-02
6.001207401587e-02
1.640227647749e-01
3.597968047824e-01
4.657239708981e-01
5.912952792874e-01
6.560227647934e-01
8.726837545765e-01
1.225356232365e+00
2.034186565881e+00
3.532460835074e+00
5.119456888459e+00
6.642681449962e+00
8.177910447726e+00
9.573366870221e+00
9.833264726959e+00
9.861035553789e+00
9.875499994470e+00
9.885642515588e+00
9.884886324207e+00
9.886098545852e+00
9.880787882594e+00
9.878207730985e+00
9.868930331073e+00
9.862080598692e+00
9.847640365397e+00
9.833427094783e+00
9.805842809079e+00
9.736689683804e+00
9.048856064383e+00
8.372761581649e+00
7.878079180662e+00
7.435569354369e+00
6.485978877837e+00
4.943072610701e+00
3.365263540878e+00
1.854360076372e+00
3.845880487234e-01
5.799338235886e-02
5.606032557026e-02
6.143062033669e-02
6.461083750071e-02
7.310576593705e-02
7.667962768144e-02
8.600383395108e-02
8.949982907516e-02
9.977567131483e-02
1.035055103250e-01
1.157767083710e-01
1.215226452654e-01
1.415057397006e-01
1.743152835012e-01
8.252413251761e-01
1.884643142868e+00
2.180391495394e+00
2.430392751140e+00
3.004416804721e+00
4.103350673494e+00
5.686039650546e+00
7.208954553949e+00
8.724273588406e+00
1.000834430668e+01
1.010962909152e+01
1.012142901426e+01
1.013857880905e+01
1.013179780574e+01
1.013888811871e+01
1.012794728958e+01
1.013145633469e+01
1.011652671521e+01
1.011583734010e+01
1.009596327079e+01
1.008841738288e+01
1.005689715054e+01
1.001040024128e+01
9.595743797858e+00
8.677079826425e+00
8.037216538032e+00
7.411838961858e+00
6.162068811614e+00
4.588291304369e+00
3.044149914320e+00
1.531174122932e+00
1.745112423005e-01
1.057781355681e-01
9.818972917929e-02
1.028574373836e-01
1.021945941406e-01
1.095029794206e-01
1.102286130647e-01
1.189215742871e-01
1.205615308845e-01
1.310149344020e-01
1.343407035939e-01
1.489232196052e-01
1.591324809493e-01
2.017587239759e-01
4.485024845572e-01
1.550824867390e+00
2.368394827816e+00
3.251035897025e+00
4.765898939663e+00
6.360392016665e+00
7.853257751484e+00
9.349588952174e+00
1.008570636547e+01
1.014722837399e+01
1.015697530133e+01
1.017199261796e+01
1.016716058893e+01
1.017357608916e+01
1.016359749006e+01
1.016604461934e+01
1.015212336292e+01
1.015038647027e+01
1.013151116794e+01
1.012293268398e+01
1.009236075828e+01
1.004524500876e+01
9.465116014612e+00
8.261442726453e+00
6.940342503352e+00
5.644419915700e+00
4.067795507070e+00
2.539293984142e+00
1.050393811156e+00
1.385705247052e-01
1.123634739286e-01
1.120544851226e-01
1.097771715596e-01
1.149384544396e-01
1.153509048994e-01
1.223102583247e-01
1.240185089717e-01
1.326164312044e-01
1.359266594057e-01
1.475465826882e-01
1.553299102481e-01
1.788979890615e-01
2.517495758872e-01
1.551256106992e+00
3.012587429614e+00
4.592360709402e+00
6.118935736337e+00
7.687325150961e+00
9.126197487650e+00
1.011258610089e+01
1.015279157055e+01
1.017458719362e+01
1.017540491240e+01
1.018170187396e+01
1.017455618299e+01
1.017688769047e+01
1.016596943406e+01
1.016427412229e+01
1.014902075323e+01
1.014201356350e+01
1.011897212217e+01
1.009767907676e+01
9.995950902616e+00
8.693165676286e+00
7.202745364048e+00
5.641883743534e+00
4.086228499052e+00
2.536752692920e+00
1.068815511129e+00
1.420819141743e-01
1.158307383216e-01
1.142278925993e-01
1.123211917982e-01
1.165963827852e-01
1.175003770282e-01
1.236578779624e-01
1.259519426384e-01
1.337622373551e-01
1.377709742617e-01
1.485774674445e-01
1.572529470676e-01
1.799120293596e-01
2.549187132717e-01
1.548762131976e+00
3.018828236901e+00
4.589866001369e+00
5.146023811477e+00
</dep>
<dep tran.v(vin1) time>
0.000000000000e+00
1.570795680831e-02
2.269899740518e-02
3.668104189977e-02
6.464488842077e-02
1.074142759576e-01
1.535219140587e-01
2.127474832966e-01
2.913587060026e-01
4.111543357961e-01
6.316850127035e-01
1.071714822155e+00
1.944649402414e+00
3.455188022181e+00
4.880648445731e+00
6.113661530831e+00
7.263609968319e+00
8.249377908201e+00
9.032018785867e+00
9.592261385473e+00
9.916310674878e+00
9.996187485120e+00
9.829924984034e+00
9.421617106190e+00
8.781317746637e+00
7.924793200640e+00
6.873133945162e+00
5.652235321330e+00
4.639483234643e+00
3.451469520060e+00
2.555231975611e+00
1.667099832202e+00
1.041218956023e-01
-1.461419867628e+00
-2.889563805800e+00
-4.351601729426e+00
-5.706488776336e+00
-6.920863130822e+00
-7.964822866000e+00
-8.812662228485e+00
-9.443504599355e+00
-9.841816545795e+00
-9.997790305760e+00
-9.907585287634e+00
-9.573422638336e+00
-9.003530551315e+00
-8.211941661115e+00
-7.218147513346e+00
-6.046618618141e+00
-4.726201904980e+00
-4.539743817376e+00
-4.404336128409e+00
-4.307105742840e+00
-4.213337843692e+00
-4.024454362597e+00
-3.641581705381e+00
-2.857730866940e+00
-1.323440180449e+00
2.434379955313e-01
1.804321920137e+00
3.320777450868e+00
4.755464419730e+00
5.706486096451e+00
6.512162158857e+00
7.619155660731e+00
8.538540263711e+00
9.247677667608e+00
9.729106556045e+00
9.970972552019e+00
9.967320112002e+00
9.718239171189e+00
9.229862928994e+00
8.514216829328e+00
7.588922454259e+00
6.476763622176e+00
5.205125374570e+00
4.290732543570e+00
3.598089813966e+00
3.118674681470e+00
2.659638799515e+00
1.724291638153e+00
1.621489752437e-01
-1.403986333578e+00
-2.935550839303e+00
-4.394832340830e+00
-5.745898484514e+00
-6.693866075456e+00
-7.496781959613e+00
-8.439771397215e+00
-9.174945653022e+00
-9.684202296953e+00
-9.955001740309e+00
-9.980676002061e+00
-9.760592896678e+00
-9.300171600628e+00
-8.610749214271e+00
-7.709301604821e+00
-6.618025404154e+00
-5.363791454070e+00
-4.320676575352e+00
-3.233820911992e+00
-2.959409591829e+00
-2.685511819021e+00
-2.131374038175e+00
-1.004083146878e+00
5.647177286272e-01
2.119613379463e+00
3.622317114303e+00
5.035827380008e+00
6.325338862664e+00
7.445242589311e+00
8.397928602425e+00
9.143829742221e+00
9.664579447132e+00
9.947355131154e+00
9.985193918469e+00
9.777164092552e+00
9.328388038129e+00
8.649916111062e+00
7.758454541916e+00
6.675954073113e+00
5.429069458808e+00
4.577284653699e+00
3.667061149957e+00
3.017260971031e+00
2.400165532438e+00
1.138957888544e+00
-4.292295669228e-01
-1.986847965920e+00
-3.495543574026e+00
-4.918167298296e+00
-6.219689421220e+00
-7.366892682305e+00
-8.334052999945e+00
-9.096001273589e+00
-9.633975807981e+00
-9.934729884647e+00
-9.990857940075e+00
-9.800977915262e+00
-9.369765286594e+00
-8.707837940103e+00
-7.831494723868e+00
-6.762314116292e+00
-5.526622892338e+00
-4.705657356577e+00
-3.633894779575e+00
-2.776626473196e+00
-1.925529358266e+00
-3.667524728882e-01
1.201055075554e+00
2.739288661962e+00
4.210071870335e+00
5.292811936991e+00
6.396277260684e+00
7.520016479493e+00
8.399131591693e+00
9.144726750758e+00
9.665148387611e+00
9.947581994373e+00
9.985073118301e+00
9.776698603499e+00
9.327589322077e+00
8.648803835050e+00
7.757056093871e+00
6.674303887467e+00
5.427208168609e+00
4.422006797453e+00
3.205587575091e+00
1.894131432272e+00
5.840222312116e-01
-9.848425744620e-01
-2.529457287447e+00
-4.011788367228e+00
-5.395335903046e+00
-6.646032362837e+00
-7.733081448938e+00
-8.629716405141e+00
-9.313859103062e+00
-9.768663678940e+00
-9.982931334706e+00
-9.951386089562e+00
-9.674804692136e+00
-9.159997494354e+00
-8.419640757972e+00
-7.471964522944e+00
-6.340303723331e+00
-5.052523603789e+00
-3.640333584757e+00
-2.138506471294e+00
-5.840222312115e-01
9.848425744621e-01
2.529457287447e+00
4.011788367228e+00
5.395335903046e+00
6.646032362837e+00
7.733081448938e+00
8.629716405141e+00
9.313859103062e+00
9.768663678940e+00
9.982931334706e+00
9.951386089562e+00
9.674804692136e+00
9.159997494354e+00
8.419640757972e+00
7.471964522944e+00
6.340303723331e+00
5.052523603789e+00
3.640333584757e+00
2.138506471294e+00
5.840222312115e-01
-9.848425744621e-01
-2.529457287447e+00
-4.011788367228e+00
-5.395335903046e+00
-6.646032362837e+00
-7.733081448938e+00
-8.629716405141e+00
-9.313859103062e+00
-9.768663678940e+00
-9.982931334706e+00
-9.951386089562e+00
-9.674804692136e+00
-9.159997494354e+00
-8.419640757972e+00
-7.471964522943e+00
-6.340303723331e+00
-5.052523603789e+00
-3.640333584757e+00
-2.138506471294e+00
-5.840222312115e-01
-1.224646799147e-14
</dep>
<dep tran.v(vout_recortador) time>
4.038967833924e-25
1.513013917282e-02
2.210242436178e-02
3.607700189898e-02
6.391570325856e-02
1.066179864318e-01
1.525862400870e-01
2.117327469154e-01
2.901476241233e-01
4.097464105754e-01
6.297999866609e-01
1.068996523014e+00
1.940156091568e+00
3.447730424678e+00
4.851068574671e+00
5.003089287814e+00
5.031355794207e+00
5.044969292036e+00
5.053989863167e+00
5.058903150757e+00
5.061650787674e+00
5.062161730933e+00
5.060977618897e+00
5.057393720606e+00
5.051445301781e+00
5.041449034679e+00
5.024515044081e+00
4.985915751770e+00
4.647550370106e+00
3.426345375711e+00
2.567524271287e+00
1.645542470134e+00
1.213798116744e-01
-8.845940888882e-01
-1.697347367724e+00
-2.635310894406e+00
-3.541716706719e+00
-4.458634333625e+00
-4.978656156351e+00
-5.025076169944e+00
-5.041101866576e+00
-5.049924952121e+00
-5.053949221597e+00
-5.055288108165e+00
-5.053512271801e+00
-5.049056231484e+00
-5.040655927564e+00
-5.026082674602e+00
-4.995560891072e+00
-4.732392524722e+00
-4.524828579519e+00
-4.420945594032e+00
-4.292759281514e+00
-4.230255622538e+00
-4.010717920203e+00
-3.659606381906e+00
-2.846320421199e+00
-1.346066303733e+00
2.486796269692e-01
1.775480995839e+00
3.319899945765e+00
4.720172711084e+00
4.986441696819e+00
5.015056985259e+00
5.036888968920e+00
5.049587568335e+00
5.056176865216e+00
5.059929920125e+00
5.061954606050e+00
5.061904821464e+00
5.059949769235e+00
5.055614981889e+00
5.048477275551e+00
5.036751828029e+00
5.016425966932e+00
4.949615686407e+00
4.265905540900e+00
3.588151679906e+00
3.096190312860e+00
2.651569439735e+00
1.704594802413e+00
1.590637855895e-01
-1.417437543127e+00
-2.932454951336e+00
-4.402269563290e+00
-4.976561095260e+00
-5.014854574768e+00
-5.031855711689e+00
-5.045481773565e+00
-5.053621180796e+00
-5.058621955588e+00
-5.061036687062e+00
-5.061475460664e+00
-5.059750022914e+00
-5.055890513314e+00
-5.049047973451e+00
-5.038069646467e+00
-5.018450371279e+00
-4.967447945572e+00
-4.315200052599e+00
-3.244813181958e+00
-2.956642523335e+00
-2.697581397044e+00
-2.130260997133e+00
-1.019491637112e+00
5.604685963558e-01
2.097997502775e+00
3.611989950331e+00
4.911653101429e+00
5.009815223271e+00
5.034983343819e+00
5.048878815503e+00
5.055505177362e+00
5.059324195768e+00
5.061781102643e+00
5.062009289188e+00
5.060464278204e+00
5.056479308541e+00
5.049970467595e+00
5.039103677585e+00
5.020908265039e+00
4.970983334189e+00
4.566912774659e+00
3.640963006934e+00
3.010006975533e+00
2.376598838521e+00
1.135451539094e+00
-4.471459791013e-01
-1.984116757235e+00
-3.507337758358e+00
-4.868907902111e+00
-5.005298814476e+00
-5.031798108350e+00
-5.045397104420e+00
-5.053739207435e+00
-5.058703917221e+00
-5.061364534065e+00
-5.061851320670e+00
-5.060428859823e+00
-5.056722500506e+00
-5.050388234579e+00
-5.039921340544e+00
-5.022059822434e+00
-4.978936151659e+00
-4.720420504839e+00
-3.622698766535e+00
-2.795746771243e+00
-1.917734929534e+00
-3.906591153294e-01
1.202630720580e+00
2.709211830670e+00
4.205664198496e+00
4.954232411011e+00
5.013087314954e+00
5.035107084933e+00
5.047701992682e+00
5.055122004139e+00
5.059458757219e+00
5.061721040926e+00
5.062079082809e+00
5.060385689732e+00
5.056544924926e+00
5.049878118758e+00
5.039170410527e+00
5.020766494971e+00
4.971415244667e+00
4.400881080596e+00
3.191340024501e+00
1.878052239983e+00
5.750075615418e-01
-9.951738926058e-01
-2.532258486805e+00
-4.016075193388e+00
-4.965169333530e+00
-5.017549537418e+00
-5.037785691127e+00
-5.048910993707e+00
-5.055977698770e+00
-5.059944572650e+00
-5.061870684069e+00
-5.061596801543e+00
-5.059463421740e+00
-5.054830603824e+00
-5.047313961755e+00
-5.034756230417e+00
-5.011990184557e+00
-4.927586673970e+00
-3.629433030021e+00
-2.158620976006e+00
-5.791997339925e-01
9.585217490275e-01
2.528088635145e+00
3.979455103944e+00
4.967210453512e+00
5.017967528209e+00
5.039483581248e+00
5.050795206719e+00
5.056789353216e+00
5.060122948382e+00
5.062142587136e+00
5.061692418422e+00
5.059672171234e+00
5.054870524277e+00
5.047518249362e+00
5.034899546397e+00
5.013214457403e+00
4.921708601965e+00
3.615569213324e+00
2.131554462375e+00
5.653615901511e-01
-9.855607228168e-01
-2.541902393455e+00
-4.006464402838e+00
-4.966181639053e+00
-5.017438528765e+00
-5.037944324052e+00
-5.048861362870e+00
-5.056068626422e+00
-5.059903145198e+00
-5.061938331952e+00
-5.061557461301e+00
-5.059524166746e+00
-5.054787097808e+00
-5.047381466309e+00
-5.034692121054e+00
-5.012116011748e+00
-4.926782627128e+00
-3.633242056085e+00
-2.154819847375e+00
-5.830079386643e-01
-2.056113504909e-02
</dep>
