<Qucs Dataset 0.0.24>
<indep time 209>
0.000000000000e+00
2.500000000000e-06
5.000000000000e-06
1.000000000000e-05
2.000000000000e-05
4.000000000000e-05
8.000000000000e-05
1.600000000000e-04
3.200000000000e-04
5.700000000000e-04
8.198656497871e-04
1.069865649787e-03
1.319865649787e-03
1.569865649787e-03
1.819865649787e-03
2.069865649787e-03
2.319865649787e-03
2.569865649787e-03
2.819865649787e-03
3.069865649787e-03
3.319865649787e-03
3.569865649787e-03
3.819865649787e-03
4.069865649787e-03
4.319865649787e-03
4.569865649787e-03
4.819865649787e-03
5.069865649787e-03
5.319865649787e-03
5.569865649787e-03
5.760343115868e-03
5.938401529831e-03
6.123191983065e-03
6.356261736312e-03
6.606261736312e-03
6.856261736312e-03
7.106261736312e-03
7.356261736312e-03
7.606261736312e-03
7.856261736312e-03
8.106261736312e-03
8.356261736312e-03
8.606261736312e-03
8.856261736312e-03
9.106261736312e-03
9.356261736312e-03
9.606261736312e-03
9.856261736312e-03
1.010626173631e-02
1.035626173631e-02
1.060626173631e-02
1.085626173631e-02
1.110626173631e-02
1.135626173631e-02
1.160626173631e-02
1.185626173631e-02
1.210626173631e-02
1.235626173631e-02
1.260626173631e-02
1.285626173631e-02
1.310626173631e-02
1.335626173631e-02
1.360626173631e-02
1.385626173631e-02
1.410626173631e-02
1.435626173631e-02
1.458972695793e-02
1.483972695793e-02
1.508972695793e-02
1.533972695793e-02
1.558972695793e-02
1.583972695793e-02
1.608972695793e-02
1.633972695793e-02
1.658972695793e-02
1.683972695793e-02
1.708972695793e-02
1.733972695793e-02
1.758972695793e-02
1.783972695793e-02
1.808972695793e-02
1.833972695793e-02
1.858972695793e-02
1.883972695793e-02
1.908972695793e-02
1.933972695793e-02
1.958972695793e-02
1.983972695793e-02
2.008972695793e-02
2.033972695793e-02
2.058972695793e-02
2.083972695793e-02
2.108972695793e-02
2.133972695793e-02
2.158972695793e-02
2.183972695793e-02
2.208972695793e-02
2.233972695793e-02
2.258972695793e-02
2.283972695793e-02
2.308972695793e-02
2.333972695793e-02
2.358972695793e-02
2.383972695793e-02
2.408972695793e-02
2.433972695793e-02
2.458972695793e-02
2.483972695793e-02
2.508972695793e-02
2.533972695793e-02
2.558972695793e-02
2.583972695793e-02
2.608972695793e-02
2.633972695793e-02
2.658972695793e-02
2.683972695793e-02
2.708972695793e-02
2.733972695793e-02
2.758972695793e-02
2.783972695793e-02
2.808972695793e-02
2.833972695793e-02
2.858972695793e-02
2.883972695793e-02
2.908972695793e-02
2.933972695793e-02
2.958972695793e-02
2.983972695793e-02
3.008972695793e-02
3.033972695793e-02
3.058972695793e-02
3.083972695793e-02
3.108972695793e-02
3.133972695793e-02
3.158972695793e-02
3.183972695793e-02
3.208972695793e-02
3.233972695793e-02
3.258972695793e-02
3.283972695793e-02
3.308972695793e-02
3.333972695793e-02
3.358972695793e-02
3.383972695793e-02
3.408972695793e-02
3.433972695793e-02
3.458972695793e-02
3.483972695793e-02
3.508972695793e-02
3.533972695793e-02
3.558972695793e-02
3.583972695793e-02
3.608972695793e-02
3.633972695793e-02
3.658972695793e-02
3.683972695793e-02
3.708972695793e-02
3.733972695793e-02
3.758972695793e-02
3.783972695793e-02
3.808972695793e-02
3.833972695793e-02
3.858972695793e-02
3.883972695793e-02
3.908972695793e-02
3.933972695793e-02
3.958972695793e-02
3.983972695793e-02
4.008972695793e-02
4.033972695793e-02
4.058972695793e-02
4.083972695793e-02
4.108972695793e-02
4.133972695793e-02
4.158972695793e-02
4.183972695793e-02
4.208972695793e-02
4.233972695793e-02
4.258972695793e-02
4.283972695793e-02
4.308972695793e-02
4.333972695793e-02
4.358972695793e-02
4.383972695793e-02
4.408972695793e-02
4.433972695793e-02
4.458972695793e-02
4.483972695793e-02
4.508972695793e-02
4.533972695793e-02
4.558972695793e-02
4.583972695793e-02
4.608972695793e-02
4.633972695793e-02
4.658972695793e-02
4.683972695793e-02
4.708972695793e-02
4.733972695793e-02
4.758972695793e-02
4.783972695793e-02
4.808972695793e-02
4.833972695793e-02
4.858972695793e-02
4.883972695793e-02
4.908972695793e-02
4.933972695793e-02
4.958972695793e-02
4.983972695793e-02
5.000000000000e-02
</indep>
<dep tran.v(in1) time>
0.000000000000e+00
1.570795680831e-02
3.141587485880e-02
6.283143965559e-02
1.256603988335e-01
2.513009544334e-01
5.024431817977e-01
1.003617148512e+00
1.997099805144e+00
3.505343201913e+00
4.926538834675e+00
6.227217329615e+00
7.374561066950e+00
8.340318636051e+00
9.100709880403e+00
9.637011443974e+00
9.936017802388e+00
9.990366426754e+00
9.798719073568e+00
9.365794736707e+00
8.702253450138e+00
7.824433802503e+00
6.753950626843e+00
5.517162771673e+00
4.144524058651e+00
2.669833408419e+00
1.129402599002e+00
-4.388378506748e-01
-1.996272656048e+00
-3.504552603381e+00
-4.597713197758e+00
-5.560411280784e+00
-6.485838002584e+00
-7.527070995855e+00
-8.464295234660e+00
-9.193100433402e+00
-9.695540989322e+00
-9.959245148430e+00
-9.977719639143e+00
-9.750509558188e+00
-9.283209571824e+00
-8.587326156596e+00
-7.679994271691e+00
-6.583555439377e+00
-5.325007622578e+00
-3.935340445424e+00
-2.448772125857e+00
-9.019069095434e-01
6.671662481409e-01
2.219811558598e+00
3.717797741350e+00
5.124239405047e+00
6.404505288217e+00
7.527070995855e+00
8.464295234660e+00
9.193100433402e+00
9.695540989322e+00
9.959245148430e+00
9.977719639143e+00
9.750509558188e+00
9.283209571824e+00
8.587326156596e+00
7.679994271691e+00
6.583555439377e+00
5.325007622578e+00
3.935340445424e+00
2.549366181840e+00
1.005324045724e+00
-5.634725048774e-01
-2.118394492351e+00
-3.621154576874e+00
-5.034749817792e+00
-6.324372808819e+00
-7.458268751903e+00
-8.408517365740e+00
-9.151720375764e+00
-9.669577657317e+00
-9.949337845459e+00
-9.984112315887e+00
-9.773044805729e+00
-9.321332497577e+00
-8.640098047606e+00
-7.746115708862e+00
-6.661398293481e+00
-5.412655144201e+00
-4.030634461699e+00
-2.549366181840e+00
-1.005324045724e+00
5.634725048774e-01
2.118394492351e+00
3.621154576874e+00
5.034749817792e+00
6.324372808819e+00
7.458268751903e+00
8.408517365740e+00
9.151720375764e+00
9.669577657317e+00
9.949337845459e+00
9.984112315887e+00
9.773044805729e+00
9.321332497577e+00
8.640098047606e+00
7.746115708862e+00
6.661398293481e+00
5.412655144201e+00
4.030634461699e+00
2.549366181840e+00
1.005324045724e+00
-5.634725048775e-01
-2.118394492351e+00
-3.621154576874e+00
-5.034749817792e+00
-6.324372808819e+00
-7.458268751903e+00
-8.408517365740e+00
-9.151720375764e+00
-9.669577657317e+00
-9.949337845459e+00
-9.984112315887e+00
-9.773044805729e+00
-9.321332497577e+00
-8.640098047606e+00
-7.746115708862e+00
-6.661398293481e+00
-5.412655144201e+00
-4.030634461699e+00
-2.549366181840e+00
-1.005324045724e+00
5.634725048775e-01
2.118394492351e+00
3.621154576874e+00
5.034749817792e+00
6.324372808819e+00
7.458268751903e+00
8.408517365740e+00
9.151720375764e+00
9.669577657317e+00
9.949337845459e+00
9.984112315887e+00
9.773044805729e+00
9.321332497577e+00
8.640098047606e+00
7.746115708862e+00
6.661398293481e+00
5.412655144201e+00
4.030634461699e+00
2.549366181840e+00
1.005324045724e+00
-5.634725048775e-01
-2.118394492351e+00
-3.621154576874e+00
-5.034749817792e+00
-6.324372808819e+00
-7.458268751903e+00
-8.408517365740e+00
-9.151720375764e+00
-9.669577657317e+00
-9.949337845459e+00
-9.984112315887e+00
-9.773044805729e+00
-9.321332497577e+00
-8.640098047606e+00
-7.746115708861e+00
-6.661398293481e+00
-5.412655144201e+00
-4.030634461699e+00
-2.549366181840e+00
-1.005324045724e+00
5.634725048776e-01
2.118394492351e+00
3.621154576874e+00
5.034749817792e+00
6.324372808819e+00
7.458268751903e+00
8.408517365740e+00
9.151720375764e+00
9.669577657317e+00
9.949337845459e+00
9.984112315887e+00
9.773044805729e+00
9.321332497577e+00
8.640098047606e+00
7.746115708861e+00
6.661398293481e+00
5.412655144201e+00
4.030634461699e+00
2.549366181840e+00
1.005324045724e+00
-5.634725048776e-01
-2.118394492351e+00
-3.621154576874e+00
-5.034749817792e+00
-6.324372808819e+00
-7.458268751903e+00
-8.408517365740e+00
-9.151720375764e+00
-9.669577657317e+00
-9.949337845459e+00
-9.984112315887e+00
-9.773044805729e+00
-9.321332497577e+00
-8.640098047606e+00
-7.746115708861e+00
-6.661398293481e+00
-5.412655144201e+00
-4.030634461699e+00
-2.549366181840e+00
-1.005324045724e+00
-1.224646799147e-14
</dep>
<dep tran.v(out_sujetador) time>
2.598382337570e+00
2.614090097387e+00
2.629797662210e+00
2.661212208388e+00
2.724037258730e+00
2.849662517967e+00
3.100744270615e+00
3.601678130916e+00
4.594209694426e+00
6.099935559555e+00
7.517719265182e+00
8.814306928160e+00
9.956951162951e+00
1.091748459172e+01
1.167222402442e+01
1.220255380099e+01
1.249538392125e+01
1.254347254694e+01
1.234560407248e+01
1.190661925606e+01
1.123729585145e+01
1.035408345106e+01
9.278698290789e+00
8.037588729500e+00
6.661283932022e+00
5.183671284543e+00
3.641463954246e+00
2.072971815606e+00
5.168387612813e-01
-7.665745467786e-02
-6.008444202743e-02
-6.981073122265e-02
-5.642992393448e-02
-5.966773868467e-02
-4.337791623659e-02
-4.013384059062e-02
-1.500943271350e-02
6.528736890564e-03
9.872131363846e-02
3.369389980775e-01
8.062676131840e-01
1.503583689640e+00
2.411549728968e+00
3.507627731403e+00
4.764654060101e+00
6.151708112869e+00
7.634820090913e+00
9.177473018643e+00
1.074155733709e+01
1.228843619967e+01
1.377989615036e+01
1.517898226274e+01
1.645081177542e+01
1.756376649741e+01
1.849036793244e+01
1.920773313552e+01
1.969813260502e+01
1.994942651686e+01
1.995536294724e+01
1.971573155479e+01
1.923636868976e+01
1.852901351909e+01
1.761101868154e+01
1.650492225254e+01
1.523788775490e+01
1.384083271856e+01
1.244872935198e+01
1.089885934011e+01
9.325015914877e+00
7.765830503561e+00
6.259573765507e+00
4.843315114599e+00
3.552117403709e+00
2.417841397236e+00
1.468246726445e+00
7.265379619289e-01
2.112605906233e-01
1.626337013090e-02
7.694973346364e-02
3.058713347432e-01
7.596680041320e-01
1.442388515517e+00
2.337072461219e+00
3.421508488378e+00
4.668818834715e+00
6.048298594734e+00
7.526163493258e+00
9.066048335744e+00
1.062991180940e+01
1.217912258371e+01
1.367540992149e+01
1.508172203640e+01
1.636299843985e+01
1.748736472165e+01
1.842705999467e+01
1.915887885661e+01
1.966473600368e+01
1.993211118318e+01
1.995435669836e+01
1.973086081993e+01
1.926706279233e+01
1.857431874143e+01
1.766962177342e+01
1.657518284223e+01
1.531787959762e+01
1.392841121625e+01
1.244055994204e+01
1.089069399113e+01
9.316854668129e+00
7.757673318965e+00
6.251420685954e+00
4.835167467001e+00
3.543977709719e+00
2.409709405716e+00
1.460122294002e+00
7.184213110548e-01
2.032598687703e-01
1.381671876220e-02
7.879837190963e-02
3.069813500439e-01
7.607765744057e-01
1.443495986623e+00
2.338178831505e+00
3.422613763286e+00
4.669923001300e+00
6.049402516054e+00
7.527266886438e+00
9.067151158217e+00
1.063101409895e+01
1.218022430408e+01
1.367651110977e+01
1.508282198566e+01
1.636409737492e+01
1.748846309482e+01
1.842815810279e+01
1.915997616749e+01
1.966583221291e+01
1.993320628208e+01
1.995545070521e+01
1.973195373814e+01
1.926815462274e+01
1.857540948522e+01
1.767071143344e+01
1.657627142120e+01
1.531896712121e+01
1.392949767692e+01
1.244164585002e+01
1.089177936549e+01
9.317939491449e+00
7.758757608046e+00
6.252504423251e+00
4.836250626875e+00
3.545059799413e+00
2.410790427382e+00
1.461202241012e+00
7.195002006732e-01
2.043224662684e-01
1.412290120491e-02
7.853167847528e-02
3.068261234007e-01
7.606215466811e-01
1.443341113333e+00
2.338024112297e+00
3.422459197129e+00
4.669768591288e+00
6.049248115960e+00
7.527112559313e+00
9.066996911686e+00
1.063085992623e+01
1.218007021169e+01
1.367635709103e+01
1.508266815905e+01
1.636394368799e+01
1.748830956418e+01
1.842800472878e+01
1.915982294722e+01
1.966567914521e+01
1.993305336676e+01
1.995529794217e+01
1.973180112718e+01
1.926800216376e+01
1.857525717787e+01
1.767055927756e+01
1.657611941605e+01
1.531881526705e+01
1.392934589126e+01
1.244149413845e+01
1.089162773116e+01
9.317787931599e+00
7.758606125319e+00
6.252353014948e+00
4.836099362964e+00
3.544908679329e+00
2.410639458355e+00
1.461051423425e+00
7.193495294454e-01
2.041743271429e-01
1.406766215557e-02
7.855696192451e-02
3.068476041831e-01
7.606429799181e-01
1.443362525972e+00
2.338045503773e+00
3.422480567291e+00
4.669789941292e+00
6.049269433749e+00
7.527133865871e+00
9.067018208112e+00
1.006926938871e+01
</dep>
<dep tran.v(vout_recortador) time>
5.196768615020e+00
5.196864760596e+00
5.197008174888e+00
5.197356494700e+00
5.198232450287e+00
5.200138150877e+00
5.204247780930e+00
5.214075396807e+00
5.247098168742e+00
6.083271847963e+00
7.507595299026e+00
8.802252682782e+00
9.949929641935e+00
1.090860867548e+01
1.166833042259e+01
1.219736938075e+01
1.249535482194e+01
1.254266530516e+01
1.234980356584e+01
1.191003011388e+01
1.124514963622e+01
1.036095200880e+01
9.289574368677e+00
8.047629588761e+00
6.675765627195e+00
5.314598100506e+00
5.216267436458e+00
5.190134384572e+00
5.175152081766e+00
5.170388546039e+00
5.170640942580e+00
5.170457348541e+00
5.170649094835e+00
5.170542268512e+00
5.170731733541e+00
5.170689406548e+00
5.170925333079e+00
5.171028546974e+00
5.171730264495e+00
5.173451028580e+00
5.177187879352e+00
5.183502287666e+00
5.193806945387e+00
5.212100231698e+00
5.257609570338e+00
6.133786185968e+00
7.624942219433e+00
9.161242174075e+00
1.073175716882e+01
1.227214558785e+01
1.376856630956e+01
1.473512103310e+01
1.478616202650e+01
1.480518849364e+01
1.481687465890e+01
1.482317511583e+01
1.482680229772e+01
1.482865773129e+01
1.482872291058e+01
1.482698484393e+01
1.482319186249e+01
1.481680891744e+01
1.480650581644e+01
1.478892486997e+01
1.474284511163e+01
1.385507034189e+01
1.246237511832e+01
1.091164139181e+01
9.338314369420e+00
7.778899215377e+00
6.274158715706e+00
5.266664088175e+00
5.213984022621e+00
5.194521684242e+00
5.182673185707e+00
5.176242662693e+00
5.172635058244e+00
5.171107187893e+00
5.171570550562e+00
5.173215801184e+00
5.176800188185e+00
5.182900599659e+00
5.192852631606e+00
5.209632546511e+00
5.250922791389e+00
6.030799039941e+00
7.515655736506e+00
9.050374188470e+00
1.061957109057e+01
1.216339841186e+01
1.366370860309e+01
1.472624826502e+01
1.478408655646e+01
1.480420416377e+01
1.481636841112e+01
1.482282810660e+01
1.482653826747e+01
1.482853720841e+01
1.482870559100e+01
1.482710569828e+01
1.482343727787e+01
1.481726052689e+01
1.480724059341e+01
1.479031280320e+01
1.474836992552e+01
1.394538707783e+01
1.245167026159e+01
1.090591884961e+01
9.327790084977e+00
7.773032027223e+00
6.263821020961e+00
5.266122845219e+00
5.213757405836e+00
5.193004855577e+00
5.181898097632e+00
5.176210569055e+00
5.172544806908e+00
5.171115291076e+00
5.171558674180e+00
5.173249245067e+00
5.176788653182e+00
5.182933558208e+00
5.192841537905e+00
5.209684278321e+00
5.250855343285e+00
6.034301087901e+00
7.514454915524e+00
9.053704355150e+00
1.061851884342e+01
1.216658182970e+01
1.366280221303e+01
1.472660081862e+01
1.478407466294e+01
1.480636307733e+01
1.481754200329e+01
1.482285649526e+01
1.482649010944e+01
1.482852681928e+01
1.482872575724e+01
1.482710502244e+01
1.482345611498e+01
1.481726058267e+01
1.480726622207e+01
1.479031975766e+01
1.474849358856e+01
1.394536012466e+01
1.245383122736e+01
1.090596646328e+01
9.329878857786e+00
7.773145196843e+00
6.265837103519e+00
5.266131857955e+00
5.213798868615e+00
5.193019183110e+00
5.181908675345e+00
5.176213677759e+00
5.172558288482e+00
5.171112730932e+00
5.171561370412e+00
5.173243496284e+00
5.176791166804e+00
5.182928018393e+00
5.192844189120e+00
5.209675768675e+00
5.250870356273e+00
6.033708490179e+00
7.514721781511e+00
9.053143010679e+00
1.061875846586e+01
1.216604721642e+01
1.366301503415e+01
1.472654106343e+01
1.478407796262e+01
1.480637068614e+01
1.481754691904e+01
1.482285353217e+01
1.482649063500e+01
1.482852399940e+01
1.482872619527e+01
1.482710233126e+01
1.482345642979e+01
1.481725739825e+01
1.480726619369e+01
1.479031452157e+01
1.474849488168e+01
1.394502566584e+01
1.245385484822e+01
1.090564527968e+01
9.329891302181e+00
7.772835318480e+00
6.265838579273e+00
5.266102754298e+00
5.213798099518e+00
5.193020122299e+00
5.181909244941e+00
5.176211752144e+00
5.172558054955e+00
5.171111522089e+00
5.171562300376e+00
5.173242934673e+00
5.176791944353e+00
5.182927587214e+00
5.192845197408e+00
5.209675306365e+00
5.250875334995e+00
6.033660230977e+00
7.514810115059e+00
9.053099565894e+00
1.005721021475e+01
</dep>
